!Agilent Technologies,E5071C,MY46106131,A.11.36
!Date: Thu Jul 10 16:56:07 2025
!Data & Calibration Information:
!Freq	S11:SOLT2(ON)	S21:SOLT2(ON)	S12:SOLT2(ON)	S22:SOLT2(ON)
!PortZ  Port1:50+j0    Port2:50+j0
!Above PortZ is port z conversion or system Z0 setting when saving the data.
!When reading, reference impedance value at option line is always used.
# Hz S dB R 50
10000000	-3.763269e+001	-4.607643e+001	-3.348189e-001	1.122676e+002	-3.393536e-001	1.123325e+002	-3.515860e+001	-1.511591e+001
11000000	-3.900641e+001	-7.624208e+001	-3.469946e-001	8.753572e+001	-3.499623e-001	8.761156e+001	-3.766799e+001	-2.761969e+001
12000000	-4.342279e+001	-1.174428e+002	-3.611227e-001	6.285728e+001	-3.454505e-001	6.298357e+001	-4.234372e+001	-3.702179e+001
13000000	-5.002019e+001	1.533138e+002	-3.644991e-001	3.820928e+001	-3.674208e-001	3.827969e+001	-4.621340e+001	-1.143917e+001
14000000	-4.560592e+001	6.540248e+001	-3.799009e-001	1.361091e+001	-3.982190e-001	1.357489e+001	-4.227928e+001	2.995298e+001
15000000	-4.097119e+001	2.869801e+001	-3.964466e-001	-1.108987e+001	-3.945659e-001	-1.118380e+001	-3.813737e+001	2.348747e+001
16000000	-3.799271e+001	-5.345375e+000	-3.991783e-001	-3.579231e+001	-4.016255e-001	-3.578650e+001	-3.643870e+001	1.085495e+001
17000000	-3.865590e+001	-3.854474e+001	-4.148816e-001	-6.046697e+001	-4.058381e-001	-6.051022e+001	-3.556901e+001	-8.788287e+000
18000000	-3.973016e+001	-7.134038e+001	-4.222786e-001	-8.513023e+001	-4.221754e-001	-8.509696e+001	-3.607938e+001	-2.554113e+001
19000000	-4.376520e+001	-9.822319e+001	-4.339647e-001	-1.097958e+002	-4.417426e-001	-1.098131e+002	-3.850291e+001	-4.526219e+001
20000000	-6.237112e+001	1.490022e+002	-4.414889e-001	-1.344572e+002	-4.425037e-001	-1.343797e+002	-4.276717e+001	-3.344482e+001
21000000	-4.468601e+001	5.054562e+001	-4.464080e-001	-1.590577e+002	-4.520125e-001	-1.590563e+002	-4.382008e+001	6.263635e+000
22000000	-3.952158e+001	1.997926e+001	-4.640127e-001	1.762434e+002	-4.661716e-001	1.763143e+002	-4.067726e+001	1.603282e+001
23000000	-3.780806e+001	-1.203700e+001	-4.666395e-001	1.516238e+002	-4.808548e-001	1.516116e+002	-3.722340e+001	1.229049e+001
24000000	-3.675557e+001	-3.879624e+001	-4.738652e-001	1.269910e+002	-4.856786e-001	1.269374e+002	-3.623176e+001	-1.283004e+000
25000000	-3.859789e+001	-7.109739e+001	-4.872235e-001	1.023696e+002	-4.823232e-001	1.023021e+002	-3.648954e+001	-1.761902e+001
26000000	-4.140224e+001	-1.036293e+002	-5.004844e-001	7.766785e+001	-4.831393e-001	7.771229e+001	-3.745822e+001	-2.112499e+001
27000000	-4.811682e+001	-1.426531e+002	-5.094608e-001	5.302472e+001	-4.910525e-001	5.305956e+001	-4.060831e+001	-2.622044e+001
28000000	-6.118650e+001	1.357767e+002	-5.040656e-001	2.835195e+001	-4.951925e-001	2.842105e+001	-4.017019e+001	-3.081062e+000
29000000	-4.682851e+001	1.690727e+001	-5.125911e-001	3.730215e+000	-5.036895e-001	3.685940e+000	-3.794231e+001	2.783279e+000
30000000	-4.203475e+001	-1.996789e+001	-5.213086e-001	-2.087432e+001	-5.177651e-001	-2.099411e+001	-3.602499e+001	-4.069260e+000
31000000	-4.070170e+001	-5.728985e+001	-5.271750e-001	-4.558528e+001	-5.372795e-001	-4.552376e+001	-3.591573e+001	-2.183962e+001
32000000	-4.166550e+001	-9.381764e+001	-5.382806e-001	-7.018305e+001	-5.387515e-001	-7.024715e+001	-3.610055e+001	-4.198891e+001
33000000	-4.301227e+001	-1.446734e+002	-5.495164e-001	-9.491044e+001	-5.366356e-001	-9.482951e+001	-3.855474e+001	-5.723749e+001
34000000	-4.241843e+001	1.636667e+002	-5.578389e-001	-1.194829e+002	-5.609062e-001	-1.194760e+002	-4.530282e+001	-7.592077e+001
35000000	-4.103970e+001	9.602520e+001	-5.583675e-001	-1.441871e+002	-5.428243e-001	-1.441345e+002	-5.612209e+001	5.177678e+001
36000000	-3.877680e+001	5.207138e+001	-5.605158e-001	-1.687803e+002	-5.437088e-001	-1.688142e+002	-4.079135e+001	4.836877e+001
37000000	-3.728900e+001	1.572703e+001	-5.716029e-001	1.665535e+002	-5.709247e-001	1.665733e+002	-3.685270e+001	3.004264e+001
38000000	-3.654269e+001	-2.280419e+001	-5.757519e-001	1.418746e+002	-5.781498e-001	1.418874e+002	-3.562205e+001	9.891772e+000
39000000	-3.700206e+001	-5.609434e+001	-5.801270e-001	1.173080e+002	-5.779090e-001	1.172425e+002	-3.540743e+001	-5.779987e+000
40000000	-3.999115e+001	-9.423828e+001	-5.881555e-001	9.260807e+001	-5.761535e-001	9.257217e+001	-3.715642e+001	-2.130563e+001
41000000	-4.190023e+001	-1.442800e+002	-5.990563e-001	6.800320e+001	-5.981365e-001	6.800946e+001	-4.150581e+001	-3.031463e+001
42000000	-4.418800e+001	1.474713e+002	-6.061623e-001	4.334639e+001	-6.031908e-001	4.335427e+001	-4.372924e+001	1.207277e+001
43000000	-4.246175e+001	8.310168e+001	-6.098304e-001	1.867862e+001	-6.098368e-001	1.870548e+001	-3.890160e+001	2.934404e+001
44000000	-3.955052e+001	3.387209e+001	-6.162972e-001	-5.910778e+000	-6.282799e-001	-5.852823e+000	-3.493026e+001	2.266333e+001
45000000	-3.891594e+001	-1.883581e+000	-6.208409e-001	-3.055946e+001	-6.118740e-001	-3.056593e+001	-3.355225e+001	5.528582e+000
46000000	-3.950670e+001	-3.381932e+001	-6.304702e-001	-5.518795e+001	-6.113522e-001	-5.516344e+001	-3.309830e+001	-1.209201e+001
47000000	-4.308643e+001	-8.042698e+001	-6.341313e-001	-7.981011e+001	-6.210894e-001	-7.991536e+001	-3.404353e+001	-2.827723e+001
48000000	-4.788936e+001	-1.334396e+002	-6.359129e-001	-1.044323e+002	-6.128164e-001	-1.043721e+002	-3.631915e+001	-4.144780e+001
49000000	-4.781881e+001	9.965789e+001	-6.411271e-001	-1.290980e+002	-6.207121e-001	-1.291185e+002	-4.042070e+001	-4.633403e+001
50000000	-4.185609e+001	5.592102e+001	-6.444904e-001	-1.537393e+002	-6.442587e-001	-1.537278e+002	-4.401478e+001	-2.449358e+000
51000000	-3.895316e+001	1.850173e+001	-6.486308e-001	-1.783762e+002	-6.403986e-001	-1.784073e+002	-3.908561e+001	1.435509e+001
52000000	-3.754062e+001	-1.286120e+001	-6.584303e-001	1.570058e+002	-6.467996e-001	1.570829e+002	-3.587865e+001	1.363655e+001
53000000	-3.811666e+001	-4.387495e+001	-6.646309e-001	1.323526e+002	-6.628649e-001	1.323257e+002	-3.420197e+001	-6.023166e+000
54000000	-3.920458e+001	-8.297681e+001	-6.690513e-001	1.077147e+002	-6.582098e-001	1.077700e+002	-3.483380e+001	-2.063354e+001
55000000	-4.394380e+001	-1.276430e+002	-6.729611e-001	8.312071e+001	-6.591112e-001	8.307539e+001	-3.630759e+001	-3.298997e+001
56000000	-4.586462e+001	1.649580e+002	-6.776871e-001	5.851673e+001	-6.804349e-001	5.843471e+001	-4.001761e+001	-3.490909e+001
57000000	-4.353349e+001	9.002314e+001	-6.819283e-001	3.380744e+001	-6.801072e-001	3.383386e+001	-4.188976e+001	-3.366117e+000
58000000	-4.141573e+001	4.339765e+001	-6.824982e-001	9.218730e+000	-6.757421e-001	9.166530e+000	-3.804877e+001	1.896308e+001
59000000	-4.025382e+001	5.055071e+000	-6.861248e-001	-1.545217e+001	-6.661051e-001	-1.542423e+001	-3.475091e+001	1.067724e+001
60000000	-4.017187e+001	-2.906462e+001	-6.921450e-001	-4.003424e+001	-7.023008e-001	-4.005850e+001	-3.278619e+001	-4.027570e+000
61000000	-4.243607e+001	-6.859081e+001	-6.927997e-001	-6.471873e+001	-6.877650e-001	-6.472045e+001	-3.281967e+001	-2.014956e+001
62000000	-4.841051e+001	-1.248349e+002	-6.982995e-001	-8.934758e+001	-6.901226e-001	-8.931375e+001	-3.374765e+001	-3.749232e+001
63000000	-4.807821e+001	1.261249e+002	-7.007555e-001	-1.139940e+002	-7.073136e-001	-1.139823e+002	-3.670987e+001	-5.641461e+001
64000000	-4.101462e+001	7.198562e+001	-7.082736e-001	-1.386201e+002	-7.020279e-001	-1.386267e+002	-4.227031e+001	-5.754060e+001
65000000	-3.796027e+001	3.901178e+001	-7.085353e-001	-1.632489e+002	-7.095956e-001	-1.632758e+002	-4.673365e+001	1.587112e+001
66000000	-3.616394e+001	7.585110e+000	-7.185995e-001	1.720870e+002	-7.248942e-001	1.721477e+002	-3.811491e+001	2.997264e+001
67000000	-3.604752e+001	-2.154814e+001	-7.244019e-001	1.474951e+002	-7.154200e-001	1.475013e+002	-3.447338e+001	1.513672e+001
68000000	-3.766560e+001	-4.906872e+001	-7.288933e-001	1.228551e+002	-7.184999e-001	1.228758e+002	-3.333074e+001	-3.101344e+000
69000000	-4.010474e+001	-8.139731e+001	-7.297609e-001	9.820785e+001	-7.153945e-001	9.826576e+001	-3.325339e+001	-1.538388e+001
70000000	-4.755779e+001	-1.236792e+002	-7.328273e-001	7.361615e+001	-7.144772e-001	7.353047e+001	-3.477146e+001	-2.918486e+001
71000000	-5.759121e+001	9.628065e+001	-7.345227e-001	4.895900e+001	-7.386704e-001	4.896224e+001	-3.753488e+001	-3.093948e+001
72000000	-4.392209e+001	3.640671e+001	-7.422642e-001	2.431379e+001	-7.446175e-001	2.434294e+001	-4.033983e+001	-1.686275e+001
73000000	-3.931810e+001	2.673947e+000	-7.451081e-001	-2.814035e-001	-7.473471e-001	-2.834809e-001	-3.783126e+001	5.986125e+000
74000000	-3.857625e+001	-2.625136e+001	-7.510023e-001	-2.493655e+001	-7.488996e-001	-2.493292e+001	-3.550359e+001	5.117204e+000
75000000	-3.834723e+001	-5.977186e+001	-7.582304e-001	-4.954309e+001	-7.429432e-001	-4.959421e+001	-3.416812e+001	-5.868707e+000
76000000	-3.890888e+001	-9.740932e+001	-7.539229e-001	-7.415992e+001	-7.512808e-001	-7.426284e+001	-3.447116e+001	-2.143737e+001
77000000	-4.239098e+001	-1.378093e+002	-7.609365e-001	-9.881973e+001	-7.595360e-001	-9.885998e+001	-3.584322e+001	-3.192080e+001
78000000	-4.526854e+001	1.630256e+002	-7.664750e-001	-1.234711e+002	-7.629036e-001	-1.235073e+002	-3.877439e+001	-3.003999e+001
79000000	-4.359667e+001	8.951084e+001	-7.677255e-001	-1.481143e+002	-7.668831e-001	-1.481392e+002	-4.032822e+001	7.196701e-001
80000000	-4.168745e+001	4.691474e+001	-7.687676e-001	-1.727434e+002	-7.647662e-001	-1.726806e+002	-3.683660e+001	1.872240e+001
81000000	-4.118653e+001	9.234005e+000	-7.759627e-001	1.626256e+002	-7.789295e-001	1.626630e+002	-3.361299e+001	1.190206e+001
82000000	-4.222220e+001	-2.153351e+001	-7.779812e-001	1.380116e+002	-7.748993e-001	1.380160e+002	-3.177227e+001	-2.126270e+000
83000000	-4.690011e+001	-4.593381e+001	-7.830473e-001	1.133967e+002	-7.818667e-001	1.133443e+002	-3.149637e+001	-1.746361e+001
84000000	-5.764536e+001	-5.005680e+001	-7.836539e-001	8.877383e+001	-7.842376e-001	8.873988e+001	-3.208087e+001	-3.460168e+001
85000000	-4.763717e+001	7.224156e+001	-7.898829e-001	6.413884e+001	-7.925710e-001	6.410907e+001	-3.442013e+001	-4.738396e+001
86000000	-4.130426e+001	4.994010e+001	-7.900758e-001	3.947017e+001	-7.908458e-001	3.944270e+001	-3.910177e+001	-5.063613e+001
87000000	-3.858850e+001	2.304938e+001	-7.931397e-001	1.487469e+001	-7.970230e-001	1.483209e+001	-4.311563e+001	-8.856053e+000
88000000	-3.771353e+001	-3.123510e+000	-7.977423e-001	-9.793640e+000	-7.946486e-001	-9.794271e+000	-3.748536e+001	1.455540e+001
89000000	-3.806533e+001	-2.973509e+001	-8.028987e-001	-3.442339e+001	-8.107776e-001	-3.432480e+001	-3.379664e+001	7.091872e+000
90000000	-4.036513e+001	-5.661224e+001	-8.035980e-001	-5.903645e+001	-8.074784e-001	-5.899834e+001	-3.223110e+001	-8.931984e+000
91000000	-4.719604e+001	-7.268603e+001	-8.117477e-001	-8.367737e+001	-8.045832e-001	-8.368155e+001	-3.186795e+001	-2.349198e+001
92000000	-6.091282e+001	4.490237e+001	-8.091705e-001	-1.083167e+002	-8.094528e-001	-1.083133e+002	-3.318208e+001	-3.920380e+001
93000000	-4.326713e+001	4.823593e+001	-8.134487e-001	-1.329240e+002	-8.250244e-001	-1.329457e+002	-3.574460e+001	-5.066117e+001
94000000	-3.909813e+001	1.704196e+001	-8.120954e-001	-1.575798e+002	-8.255095e-001	-1.575037e+002	-4.147358e+001	-4.376926e+001
95000000	-3.714053e+001	-1.103742e+001	-8.234198e-001	1.777545e+002	-8.284183e-001	1.778342e+002	-4.078046e+001	-4.664565e+000
96000000	-3.704051e+001	-3.732413e+001	-8.296660e-001	1.531827e+002	-8.284968e-001	1.530765e+002	-3.664905e+001	8.009694e+000
97000000	-3.746495e+001	-6.360421e+001	-8.255803e-001	1.285345e+002	-8.276450e-001	1.284916e+002	-3.417827e+001	-2.690089e-001
98000000	-4.012551e+001	-9.748460e+001	-8.328167e-001	1.039198e+002	-8.331572e-001	1.039562e+002	-3.346105e+001	-1.353245e+001
99000000	-4.490420e+001	-1.498060e+002	-8.327171e-001	7.930479e+001	-8.364157e-001	7.925026e+001	-3.429496e+001	-2.672500e+001
100000000	-4.893437e+001	1.252766e+002	-8.382550e-001	5.464842e+001	-8.325442e-001	5.462199e+001	-3.650926e+001	-2.966593e+001
101000000	-4.450965e+001	5.888048e+001	-8.391666e-001	2.998211e+001	-8.365533e-001	3.002156e+001	-3.958566e+001	-1.286911e+001
102000000	-4.208856e+001	2.319922e+001	-8.473976e-001	5.381846e+000	-8.423442e-001	5.388431e+000	-3.727125e+001	9.158164e+000
103000000	-4.144728e+001	-7.717393e+000	-8.491582e-001	-1.926627e+001	-8.589777e-001	-1.920991e+001	-3.410361e+001	8.900035e+000
104000000	-4.279419e+001	-3.880559e+001	-8.489795e-001	-4.387529e+001	-8.466267e-001	-4.384810e+001	-3.211187e+001	-2.004784e+000
105000000	-5.023506e+001	-5.038074e+001	-8.561814e-001	-6.847871e+001	-8.531657e-001	-6.854774e+001	-3.114002e+001	-1.653492e+001
106000000	-5.623184e+001	1.104771e+002	-8.594284e-001	-9.313110e+001	-8.597398e-001	-9.310615e+001	-3.163198e+001	-3.353066e+001
107000000	-4.367662e+001	5.714008e+001	-8.596280e-001	-1.177546e+002	-8.641594e-001	-1.177615e+002	-3.371369e+001	-4.766311e+001
108000000	-3.908103e+001	3.850448e+001	-8.603522e-001	-1.424001e+002	-8.663784e-001	-1.423767e+002	-3.794620e+001	-5.728865e+001
109000000	-3.722306e+001	1.218828e+001	-8.714526e-001	-1.670205e+002	-8.691889e-001	-1.670356e+002	-4.476524e+001	-2.281948e+001
110000000	-3.654330e+001	-1.008498e+001	-8.696283e-001	1.683529e+002	-8.698534e-001	1.683273e+002	-3.896165e+001	1.959585e+001
111000000	-3.739166e+001	-3.543377e+001	-8.746449e-001	1.437221e+002	-8.762511e-001	1.436802e+002	-3.484239e+001	1.310454e+001
112000000	-4.060288e+001	-5.780573e+001	-8.767216e-001	1.190978e+002	-8.692429e-001	1.191339e+002	-3.236528e+001	-2.514909e+000
113000000	-4.729858e+001	-6.948033e+001	-8.757931e-001	9.445133e+001	-8.874055e-001	9.441316e+001	-3.197489e+001	-1.719524e+001
114000000	-5.071825e+001	2.532241e+001	-8.796913e-001	6.982746e+001	-8.901547e-001	6.985599e+001	-3.277890e+001	-3.408856e+001
115000000	-4.247013e+001	3.075163e+001	-8.879213e-001	4.516763e+001	-8.893195e-001	4.521187e+001	-3.479558e+001	-4.715907e+001
116000000	-3.884903e+001	3.956472e+000	-8.855144e-001	2.053559e+001	-8.905931e-001	2.054642e+001	-3.910828e+001	-3.935877e+001
117000000	-3.775139e+001	-1.726031e+001	-8.890357e-001	-4.082993e+000	-8.957786e-001	-4.110112e+000	-4.031678e+001	-4.889012e+000
118000000	-3.827157e+001	-4.016830e+001	-8.966784e-001	-2.866427e+001	-8.970438e-001	-2.871399e+001	-3.667314e+001	9.675951e+000
119000000	-4.001582e+001	-6.884234e+001	-8.919441e-001	-5.333095e+001	-8.957104e-001	-5.330916e+001	-3.391860e+001	-3.458431e-001
120000000	-4.499791e+001	-8.578313e+001	-8.982664e-001	-7.794362e+001	-9.081103e-001	-7.795623e+001	-3.259479e+001	-1.447141e+001
121000000	-6.009663e+001	1.138145e+002	-9.013576e-001	-1.026036e+002	-8.952371e-001	-1.026352e+002	-3.293833e+001	-2.986962e+001
122000000	-4.476341e+001	4.902361e+001	-9.010958e-001	-1.272091e+002	-9.066496e-001	-1.271729e+002	-3.479294e+001	-4.257848e+001
123000000	-3.931462e+001	2.042859e+001	-9.066683e-001	-1.518448e+002	-9.130324e-001	-1.518796e+002	-3.889644e+001	-4.488023e+001
124000000	-3.725756e+001	-6.846684e+000	-9.103129e-001	-1.765160e+002	-9.240137e-001	-1.764265e+002	-4.252409e+001	-1.139135e+001
125000000	-3.682919e+001	-3.094778e+001	-9.142590e-001	1.588767e+002	-9.237159e-001	1.588486e+002	-3.829226e+001	1.402304e+001
126000000	-3.784267e+001	-5.849152e+001	-9.152147e-001	1.342638e+002	-9.269782e-001	1.341768e+002	-3.467894e+001	1.253407e+001
127000000	-4.094688e+001	-8.033301e+001	-9.150792e-001	1.096442e+002	-9.242182e-001	1.095960e+002	-3.332697e+001	-1.918787e+000
128000000	-4.760219e+001	-1.052603e+002	-9.176721e-001	8.501219e+001	-9.213959e-001	8.496132e+001	-3.285300e+001	-1.693410e+001
129000000	-5.392646e+001	7.667995e+001	-9.234569e-001	6.034688e+001	-9.256571e-001	6.041358e+001	-3.434468e+001	-2.846268e+001
130000000	-4.323981e+001	3.125299e+001	-9.226156e-001	3.571296e+001	-9.304661e-001	3.573842e+001	-3.718794e+001	-3.290111e+001
131000000	-4.019063e+001	4.028850e+000	-9.335469e-001	1.111454e+001	-9.361070e-001	1.109674e+001	-3.985458e+001	-1.279604e+001
132000000	-3.872424e+001	-2.046827e+001	-9.331811e-001	-1.351281e+001	-9.345448e-001	-1.352425e+001	-3.788191e+001	1.230665e+001
133000000	-3.902202e+001	-4.367743e+001	-9.397646e-001	-3.814545e+001	-9.442367e-001	-3.816497e+001	-3.497482e+001	1.388200e+001
134000000	-4.068831e+001	-6.150204e+001	-9.387723e-001	-6.275004e+001	-9.445378e-001	-6.281120e+001	-3.277696e+001	1.710554e+000
135000000	-4.603258e+001	-7.724130e+001	-9.359461e-001	-8.739357e+001	-9.505117e-001	-8.740575e+001	-3.203802e+001	-1.133628e+001
136000000	-5.243220e+001	-4.927576e+001	-9.471041e-001	-1.120396e+002	-9.593461e-001	-1.119715e+002	-3.259450e+001	-2.350094e+001
137000000	-4.536959e+001	-1.239168e+001	-9.491822e-001	-1.366843e+002	-9.607964e-001	-1.366362e+002	-3.385663e+001	-3.287799e+001
138000000	-4.106994e+001	-1.975854e+001	-9.540645e-001	-1.613161e+002	-9.555008e-001	-1.612558e+002	-3.618736e+001	-3.311663e+001
139000000	-3.980721e+001	-4.584630e+001	-9.568873e-001	1.740941e+002	-9.553578e-001	1.741241e+002	-3.756786e+001	-1.745938e+001
140000000	-3.955814e+001	-7.024518e+001	-9.557786e-001	1.494598e+002	-9.602463e-001	1.493805e+002	-3.626603e+001	-8.253262e+000
141000000	-4.076657e+001	-1.018359e+002	-9.599444e-001	1.248113e+002	-9.710089e-001	1.248163e+002	-3.492172e+001	-6.731264e+000
142000000	-4.358700e+001	-1.406670e+002	-9.640773e-001	1.002103e+002	-9.750976e-001	1.002036e+002	-3.378989e+001	-1.616425e+001
143000000	-4.757529e+001	1.573586e+002	-9.631674e-001	7.555107e+001	-9.723907e-001	7.560371e+001	-3.430396e+001	-2.505496e+001
144000000	-4.747333e+001	8.395908e+001	-9.711614e-001	5.090856e+001	-9.829256e-001	5.100292e+001	-3.558973e+001	-2.784613e+001
145000000	-4.465433e+001	3.057864e+001	-9.716381e-001	2.628842e+001	-9.800975e-001	2.630730e+001	-3.756757e+001	-2.181824e+001
146000000	-4.296967e+001	-5.626709e+000	-9.803769e-001	1.692212e+000	-9.709519e-001	1.716626e+000	-3.747831e+001	-4.304995e+000
147000000	-4.435839e+001	-3.703016e+001	-9.751914e-001	-2.295375e+001	-9.765785e-001	-2.291569e+001	-3.497656e+001	1.452367e+000
148000000	-4.831549e+001	-8.494435e+001	-9.768674e-001	-4.755561e+001	-9.821133e-001	-4.754386e+001	-3.323749e+001	-6.491124e+000
149000000	-5.134525e+001	1.634897e+002	-9.791050e-001	-7.218432e+001	-9.861459e-001	-7.217890e+001	-3.210175e+001	-1.895368e+001
150000000	-4.571690e+001	8.963958e+001	-9.855459e-001	-9.686260e+001	-9.799306e-001	-9.677781e+001	-3.208581e+001	-3.127809e+001
151000000	-4.069413e+001	4.969422e+001	-9.867059e-001	-1.215144e+002	-9.905202e-001	-1.214277e+002	-3.348927e+001	-4.733776e+001
152000000	-3.767443e+001	1.861328e+001	-9.917216e-001	-1.461140e+002	-9.945121e-001	-1.460546e+002	-3.616996e+001	-5.718178e+001
153000000	-3.652731e+001	-1.360250e+001	-9.985839e-001	-1.707172e+002	-9.994182e-001	-1.707009e+002	-4.078030e+001	-5.177803e+001
154000000	-3.662039e+001	-4.656712e+001	-9.933975e-001	1.646450e+002	-1.006666e+000	1.647002e+002	-4.301186e+001	-2.171079e+001
155000000	-3.723687e+001	-8.046903e+001	-9.954159e-001	1.400667e+002	-9.988888e-001	1.400301e+002	-3.987558e+001	-2.367767e+000
156000000	-3.845410e+001	-1.195642e+002	-9.981783e-001	1.153902e+002	-1.008957e+000	1.154053e+002	-3.737288e+001	-2.720059e+000
157000000	-3.985050e+001	-1.684426e+002	-1.003924e+000	9.070644e+001	-9.996981e-001	9.076217e+001	-3.696108e+001	-9.484054e+000
158000000	-4.055739e+001	1.375690e+002	-1.006718e+000	6.610725e+001	-1.013320e+000	6.617955e+001	-3.794878e+001	-1.944161e+001
159000000	-4.050616e+001	9.027140e+001	-1.009583e+000	4.148620e+001	-1.014469e+000	4.152130e+001	-4.055255e+001	-1.279739e+001
160000000	-4.006055e+001	4.918226e+001	-1.019013e+000	1.684400e+001	-1.013591e+000	1.688411e+001	-4.039615e+001	8.672975e+000
161000000	-4.088133e+001	8.474406e+000	-1.014304e+000	-7.743399e+000	-1.007966e+000	-7.750432e+000	-3.737182e+001	1.879556e+001
162000000	-4.300018e+001	-2.536829e+001	-1.016658e+000	-3.238366e+001	-1.018799e+000	-3.235317e+001	-3.448926e+001	1.218998e+001
