!Agilent Technologies,E5071C,MY46106131,A.11.36
!Date: Thu Jul 10 16:58:51 2025
!Data & Calibration Information:
!Freq	S11:SOLT2(ON)	S21:SOLT2(ON)	S12:SOLT2(ON)	S22:SOLT2(ON)
!PortZ  Port1:50+j0    Port2:50+j0
!Above PortZ is port z conversion or system Z0 setting when saving the data.
!When reading, reference impedance value at option line is always used.
# Hz S dB R 50
10000000	-4.282482e+001	-7.171405e+001	-3.360659e-001	9.778337e+001	-3.424824e-001	9.789829e+001	-3.581695e+001	-5.148687e+001
11000000	-4.535775e+001	-1.237866e+002	-3.574383e-001	7.162868e+001	-3.614447e-001	7.174620e+001	-4.140740e+001	-7.042454e+001
12000000	-4.732617e+001	1.537817e+002	-3.671425e-001	4.552751e+001	-3.553197e-001	4.559327e+001	-5.582223e+001	-1.280896e+002
13000000	-4.511835e+001	8.462296e+001	-3.685574e-001	1.945266e+001	-3.645522e-001	1.947539e+001	-4.770496e+001	5.570810e+001
14000000	-4.267040e+001	4.932020e+001	-3.816834e-001	-6.655024e+000	-4.020393e-001	-6.708014e+000	-3.955625e+001	2.382063e+001
15000000	-4.219216e+001	4.053098e+000	-3.988052e-001	-3.272902e+001	-4.023067e-001	-3.292361e+001	-3.676076e+001	-3.738744e-001
16000000	-4.239368e+001	-2.857488e+001	-4.143554e-001	-5.887114e+001	-4.175994e-001	-5.891630e+001	-3.595077e+001	-2.576654e+001
17000000	-4.662363e+001	-8.097486e+001	-4.182432e-001	-8.500529e+001	-4.195935e-001	-8.504274e+001	-3.680183e+001	-5.310477e+001
18000000	-4.967061e+001	-1.554946e+002	-4.278343e-001	-1.111102e+002	-4.361093e-001	-1.110964e+002	-4.006908e+001	-8.588535e+001
19000000	-4.512259e+001	1.143964e+002	-4.375089e-001	-1.372004e+002	-4.467558e-001	-1.372181e+002	-4.789382e+001	-1.323592e+002
20000000	-4.112033e+001	7.502976e+001	-4.516158e-001	-1.632729e+002	-4.547593e-001	-1.633397e+002	-4.578848e+001	6.621616e+001
21000000	-3.961779e+001	4.651290e+001	-4.578337e-001	1.705947e+002	-4.516504e-001	1.705267e+002	-3.745115e+001	2.801851e+001
22000000	-3.943226e+001	1.909043e+001	-4.602444e-001	1.445251e+002	-4.673781e-001	1.444874e+002	-3.431021e+001	1.281622e+000
23000000	-4.059980e+001	-5.033707e-001	-4.733598e-001	1.184301e+002	-4.700788e-001	1.184256e+002	-3.316877e+001	-2.299841e+001
24000000	-4.510002e+001	-6.505309e+000	-4.824506e-001	9.238231e+001	-4.908798e-001	9.226391e+001	-3.326155e+001	-5.008710e+001
25000000	-4.585701e+001	3.847047e+001	-4.868914e-001	6.628552e+001	-5.003218e-001	6.619282e+001	-3.565310e+001	-7.710996e+001
26000000	-4.247910e+001	3.703803e+001	-5.009705e-001	4.021655e+001	-4.949555e-001	4.010563e+001	-3.984819e+001	-9.834159e+001
27000000	-3.905521e+001	2.478091e+001	-5.079205e-001	1.410658e+001	-4.963852e-001	1.402700e+001	-5.492414e+001	-1.488154e+002
28000000	-3.759242e+001	5.763365e+000	-5.041328e-001	-1.205638e+001	-5.094280e-001	-1.211202e+001	-4.302971e+001	2.797841e+001
29000000	-3.768532e+001	-1.881819e+001	-5.188069e-001	-3.813693e+001	-5.137820e-001	-3.819491e+001	-3.832905e+001	6.211893e+000
30000000	-3.926665e+001	-4.240625e+001	-5.243188e-001	-6.420671e+001	-5.160556e-001	-6.432154e+001	-3.588794e+001	-2.074435e+001
31000000	-4.237447e+001	-6.562800e+001	-5.351700e-001	-9.033401e+001	-5.342037e-001	-9.028963e+001	-3.645092e+001	-4.309910e+001
32000000	-5.201379e+001	-5.642072e+001	-5.455760e-001	-1.163851e+002	-5.354287e-001	-1.164712e+002	-3.884653e+001	-7.269443e+001
33000000	-4.734635e+001	3.341781e+001	-5.474619e-001	-1.425083e+002	-5.397755e-001	-1.424676e+002	-4.320653e+001	-7.483655e+001
34000000	-4.221961e+001	2.657892e+001	-5.575099e-001	-1.685901e+002	-5.662458e-001	-1.685911e+002	-4.863930e+001	-7.859856e+000
35000000	-3.989234e+001	4.234063e-001	-5.627670e-001	1.653194e+002	-5.529357e-001	1.653429e+002	-3.994545e+001	3.500769e+000
36000000	-3.994912e+001	-2.879835e+001	-5.689057e-001	1.392427e+002	-5.556359e-001	1.392010e+002	-3.651621e+001	-1.662216e+001
37000000	-4.098689e+001	-5.283384e+001	-5.751021e-001	1.131480e+002	-5.793261e-001	1.131762e+002	-3.567128e+001	-3.132817e+001
38000000	-4.411634e+001	-9.229905e+001	-5.852707e-001	8.705582e+001	-5.812298e-001	8.703854e+001	-3.705261e+001	-5.197515e+001
39000000	-5.114154e+001	-1.170945e+002	-5.857718e-001	6.106806e+001	-5.840358e-001	6.092637e+001	-3.909030e+001	-6.325568e+001
40000000	-5.113248e+001	6.661709e+001	-5.871787e-001	3.489552e+001	-5.778574e-001	3.479579e+001	-4.654217e+001	-4.248867e+001
41000000	-4.444705e+001	3.582430e+001	-6.033626e-001	8.786657e+000	-5.984425e-001	8.790627e+000	-4.219394e+001	9.108385e+000
42000000	-4.175020e+001	1.106554e+000	-6.017401e-001	-1.730029e+001	-6.055525e-001	-1.729159e+001	-3.713610e+001	-1.135961e+000
43000000	-4.178958e+001	-2.738799e+001	-6.109261e-001	-4.339662e+001	-6.159070e-001	-4.335877e+001	-3.514869e+001	-1.859444e+001
44000000	-4.375418e+001	-6.598176e+001	-6.216220e-001	-6.944043e+001	-6.247113e-001	-6.949205e+001	-3.420074e+001	-3.985317e+001
45000000	-4.687298e+001	-9.859189e+001	-6.240555e-001	-9.557088e+001	-6.099332e-001	-9.550397e+001	-3.617393e+001	-5.760661e+001
46000000	-5.553078e+001	-1.562880e+002	-6.332671e-001	-1.215476e+002	-6.308571e-001	-1.216515e+002	-3.964378e+001	-7.226385e+001
47000000	-4.807007e+001	7.231154e+001	-6.312693e-001	-1.476545e+002	-6.150730e-001	-1.477165e+002	-4.569493e+001	-3.853171e+001
48000000	-4.493195e+001	3.566694e+001	-6.353540e-001	-1.737662e+002	-6.190685e-001	-1.737878e+002	-4.017969e+001	2.319296e+000
49000000	-4.263526e+001	-5.283854e+000	-6.432021e-001	1.601625e+002	-6.294884e-001	1.601064e+002	-3.575067e+001	-5.396529e+000
50000000	-4.386357e+001	-3.553523e+001	-6.481087e-001	1.340765e+002	-6.401527e-001	1.340352e+002	-3.369172e+001	-2.594176e+001
51000000	-4.803970e+001	-7.346286e+001	-6.598613e-001	1.079985e+002	-6.497620e-001	1.079566e+002	-3.347180e+001	-4.697238e+001
52000000	-5.284442e+001	-1.660109e+002	-6.584039e-001	8.192657e+001	-6.539651e-001	8.192452e+001	-3.470538e+001	-6.581601e+001
53000000	-4.482487e+001	1.076396e+002	-6.662932e-001	5.587348e+001	-6.589264e-001	5.578099e+001	-3.969383e+001	-8.560033e+001
54000000	-4.066470e+001	8.257043e+001	-6.695853e-001	2.978312e+001	-6.675745e-001	2.969585e+001	-5.387675e+001	-3.577284e+001
55000000	-3.875140e+001	4.701496e+001	-6.763853e-001	3.706988e+000	-6.672026e-001	3.620271e+000	-4.002682e+001	2.745861e+001
56000000	-3.891663e+001	2.133588e+001	-6.841019e-001	-2.236490e+001	-6.791428e-001	-2.253929e+001	-3.416276e+001	8.250209e+000
57000000	-4.001227e+001	-1.163288e+000	-6.888805e-001	-4.849065e+001	-6.891485e-001	-4.845728e+001	-3.213250e+001	-1.462780e+001
58000000	-4.274764e+001	-4.144429e+000	-6.840817e-001	-7.453052e+001	-6.815201e-001	-7.455609e+001	-3.169065e+001	-3.697382e+001
59000000	-4.569330e+001	1.757473e+001	-6.883642e-001	-1.005714e+002	-6.767422e-001	-1.006999e+002	-3.245332e+001	-5.692399e+001
60000000	-4.295629e+001	2.917838e+001	-6.937653e-001	-1.266560e+002	-6.978013e-001	-1.267197e+002	-3.485578e+001	-7.640349e+001
61000000	-3.942876e+001	2.344487e+001	-6.933126e-001	-1.527635e+002	-6.888924e-001	-1.528769e+002	-4.020325e+001	-8.051461e+001
62000000	-3.739952e+001	5.610023e+000	-6.936177e-001	-1.788714e+002	-7.017966e-001	-1.788758e+002	-4.556363e+001	-2.685974e+001
63000000	-3.690693e+001	-1.578629e+001	-7.083335e-001	1.550596e+002	-6.985170e-001	1.550676e+002	-3.844457e+001	-4.346893e+000
64000000	-3.799436e+001	-3.683969e+001	-7.106528e-001	1.289987e+002	-7.069099e-001	1.289567e+002	-3.466199e+001	-1.673923e+001
65000000	-3.972020e+001	-6.342009e+001	-7.144855e-001	1.029547e+002	-7.049881e-001	1.028727e+002	-3.363851e+001	-3.180098e+001
66000000	-4.612647e+001	-6.742630e+001	-7.199841e-001	7.684852e+001	-7.131859e-001	7.684998e+001	-3.444600e+001	-4.845113e+001
67000000	-5.148785e+001	-1.143894e+001	-7.165360e-001	5.079913e+001	-7.231410e-001	5.071377e+001	-3.657290e+001	-6.018218e+001
68000000	-4.354171e+001	1.494464e+001	-7.274120e-001	2.468677e+001	-7.243511e-001	2.462387e+001	-4.031062e+001	-5.346500e+001
69000000	-3.972082e+001	-3.916751e+000	-7.296247e-001	-1.421135e+000	-7.307308e-001	-1.379193e+000	-4.028060e+001	-2.116146e+001
70000000	-3.813793e+001	-2.422447e+001	-7.287813e-001	-2.748004e+001	-7.226976e-001	-2.753187e+001	-3.723450e+001	-1.011280e+001
71000000	-3.783334e+001	-4.360215e+001	-7.377666e-001	-5.356423e+001	-7.478847e-001	-5.353731e+001	-3.458261e+001	-1.642685e+001
72000000	-3.837123e+001	-6.510684e+001	-7.460976e-001	-7.964231e+001	-7.382326e-001	-7.958856e+001	-3.347878e+001	-2.937077e+001
73000000	-4.144879e+001	-8.225806e+001	-7.482416e-001	-1.056920e+002	-7.391962e-001	-1.056893e+002	-3.425303e+001	-3.668706e+001
74000000	-4.284479e+001	-7.615234e+001	-7.484703e-001	-1.317792e+002	-7.543760e-001	-1.318159e+002	-3.467362e+001	-3.862255e+001
75000000	-4.383744e+001	-6.960009e+001	-7.512020e-001	-1.578319e+002	-7.364872e-001	-1.579742e+002	-3.497151e+001	-3.801538e+001
76000000	-4.143136e+001	-7.324125e+001	-7.563404e-001	1.760569e+002	-7.571486e-001	1.760100e+002	-3.417650e+001	-3.761057e+001
77000000	-3.965153e+001	-9.833699e+001	-7.567623e-001	1.499411e+002	-7.536042e-001	1.499316e+002	-3.322534e+001	-4.545015e+001
78000000	-3.886871e+001	-1.199146e+002	-7.668040e-001	1.239039e+002	-7.525289e-001	1.238084e+002	-3.356935e+001	-5.881348e+001
79000000	-3.804701e+001	-1.589849e+002	-7.696095e-001	9.782146e+001	-7.637346e-001	9.782735e+001	-3.517174e+001	-7.172657e+001
80000000	-3.835662e+001	1.678339e+002	-7.660299e-001	7.176233e+001	-7.619851e-001	7.172082e+001	-3.866468e+001	-8.571731e+001
81000000	-3.844651e+001	1.310703e+002	-7.724810e-001	4.567322e+001	-7.795759e-001	4.565791e+001	-4.904649e+001	-6.931074e+001
82000000	-3.901396e+001	9.090015e+001	-7.757893e-001	1.960353e+001	-7.745459e-001	1.957157e+001	-4.178338e+001	2.192012e+001
83000000	-4.059974e+001	5.504086e+001	-7.804978e-001	-6.464014e+000	-7.787984e-001	-6.575512e+000	-3.582613e+001	8.416101e+000
84000000	-4.303973e+001	1.503063e+001	-7.815861e-001	-3.252763e+001	-7.951602e-001	-3.258251e+001	-3.288738e+001	-9.912607e+000
85000000	-5.155084e+001	-3.005575e+001	-7.921034e-001	-5.860769e+001	-7.940439e-001	-5.866202e+001	-3.214330e+001	-3.015267e+001
86000000	-5.274584e+001	1.697557e+002	-7.908285e-001	-8.469048e+001	-7.923092e-001	-8.478557e+001	-3.272492e+001	-5.284028e+001
87000000	-4.343889e+001	1.248386e+002	-7.971060e-001	-1.107510e+002	-7.988895e-001	-1.108913e+002	-3.510375e+001	-7.234573e+001
88000000	-3.872590e+001	8.975425e+001	-7.933713e-001	-1.368754e+002	-8.067133e-001	-1.369134e+002	-4.154845e+001	-8.345302e+001
89000000	-3.739076e+001	6.335802e+001	-8.007322e-001	-1.628949e+002	-8.152056e-001	-1.629392e+002	-4.670079e+001	9.700847e+000
90000000	-3.669137e+001	3.156686e+001	-8.033993e-001	1.709957e+002	-8.025701e-001	1.710069e+002	-3.714325e+001	2.205039e+001
91000000	-3.723651e+001	7.129625e+000	-8.114698e-001	1.449394e+002	-8.165209e-001	1.448502e+002	-3.314646e+001	6.485399e+000
92000000	-3.919394e+001	-1.857473e+001	-8.099032e-001	1.188707e+002	-8.031851e-001	1.188711e+002	-3.162820e+001	-1.408123e+001
93000000	-4.512116e+001	-3.721945e+001	-8.142953e-001	9.279423e+001	-8.297779e-001	9.275673e+001	-3.156075e+001	-3.234689e+001
94000000	-5.182167e+001	-1.378542e+000	-8.103041e-001	6.670198e+001	-8.147865e-001	6.669929e+001	-3.321353e+001	-4.846612e+001
95000000	-4.502898e+001	5.112482e+001	-8.204070e-001	4.060490e+001	-8.226254e-001	4.059297e+001	-3.656159e+001	-5.158988e+001
96000000	-4.076958e+001	3.289228e+001	-8.277467e-001	1.455535e+001	-8.324947e-001	1.445315e+001	-4.003781e+001	-2.770266e+001
97000000	-3.906581e+001	1.440625e+001	-8.236255e-001	-1.156082e+001	-8.367669e-001	-1.163264e+001	-3.688197e+001	-1.831578e-001
98000000	-3.877654e+001	-5.252371e+000	-8.316277e-001	-3.760864e+001	-8.370415e-001	-3.763856e+001	-3.305417e+001	-3.635224e+000
99000000	-4.139382e+001	-1.855386e+001	-8.348623e-001	-6.367576e+001	-8.290179e-001	-6.377798e+001	-3.120357e+001	-1.812044e+001
100000000	-4.352624e+001	-1.476533e+001	-8.344187e-001	-8.973880e+001	-8.269378e-001	-8.983880e+001	-3.089993e+001	-3.466106e+001
101000000	-4.282160e+001	5.901406e+000	-8.373794e-001	-1.158594e+002	-8.444015e-001	-1.158682e+002	-3.185062e+001	-4.999004e+001
102000000	-3.958921e+001	1.116722e+001	-8.462830e-001	-1.419142e+002	-8.455951e-001	-1.419766e+002	-3.414238e+001	-6.185983e+001
103000000	-3.754326e+001	-5.234074e+000	-8.448631e-001	-1.680031e+002	-8.596858e-001	-1.679886e+002	-3.789682e+001	-6.427163e+001
104000000	-3.589634e+001	-2.457983e+001	-8.456290e-001	1.659383e+002	-8.424815e-001	1.659431e+002	-4.136565e+001	-3.442517e+001
105000000	-3.609057e+001	-4.787338e+001	-8.528957e-001	1.398497e+002	-8.557135e-001	1.397999e+002	-3.817277e+001	-9.887115e+000
106000000	-3.689542e+001	-7.660180e+001	-8.561056e-001	1.137999e+002	-8.553091e-001	1.137829e+002	-3.532505e+001	-9.187978e+000
107000000	-3.989915e+001	-9.319809e+001	-8.584436e-001	8.773360e+001	-8.660560e-001	8.765516e+001	-3.404796e+001	-1.749653e+001
108000000	-4.483207e+001	-1.167086e+002	-8.608804e-001	6.163863e+001	-8.706742e-001	6.158521e+001	-3.414794e+001	-2.915588e+001
109000000	-5.797731e+001	-7.603313e+001	-8.636826e-001	3.556938e+001	-8.798008e-001	3.547908e+001	-3.491924e+001	-3.433402e+001
110000000	-4.767599e+001	-1.999700e+001	-8.681749e-001	9.474276e+000	-8.802333e-001	9.447042e+000	-3.556499e+001	-3.334721e+001
111000000	-4.250113e+001	-4.686224e+001	-8.721850e-001	-1.658169e+001	-8.742789e-001	-1.659827e+001	-3.528458e+001	-2.891931e+001
112000000	-4.163966e+001	-8.203834e+001	-8.788521e-001	-4.266236e+001	-8.734582e-001	-4.271362e+001	-3.461158e+001	-2.870593e+001
113000000	-4.194184e+001	-1.208348e+002	-8.788057e-001	-6.872648e+001	-8.854300e-001	-6.878717e+001	-3.461649e+001	-3.444351e+001
114000000	-4.274900e+001	-1.736788e+002	-8.812292e-001	-9.477471e+001	-8.902116e-001	-9.481878e+001	-3.511054e+001	-4.373660e+001
115000000	-4.164742e+001	1.310448e+002	-8.854738e-001	-1.208918e+002	-8.955119e-001	-1.209835e+002	-3.683023e+001	-4.811876e+001
116000000	-4.056985e+001	8.000703e+001	-8.848767e-001	-1.469643e+002	-8.924448e-001	-1.470227e+002	-4.011634e+001	-3.606186e+001
117000000	-3.976115e+001	4.252590e+001	-8.892727e-001	-1.730383e+002	-9.035358e-001	-1.731100e+002	-4.051548e+001	-5.357163e+000
118000000	-3.888144e+001	8.078280e+000	-8.933745e-001	1.609235e+002	-9.056191e-001	1.608167e+002	-3.663068e+001	7.295306e+000
119000000	-3.982386e+001	-2.730190e+001	-8.983585e-001	1.348278e+002	-8.994898e-001	1.347824e+002	-3.381155e+001	1.078086e+000
120000000	-4.156860e+001	-5.201386e+001	-8.968332e-001	1.087709e+002	-9.059243e-001	1.087183e+002	-3.233499e+001	-1.246625e+001
121000000	-4.951496e+001	-7.959295e+001	-9.000620e-001	8.267732e+001	-9.040715e-001	8.260868e+001	-3.209822e+001	-2.637866e+001
122000000	-6.211167e+001	5.932314e+001	-9.009952e-001	5.661582e+001	-9.090744e-001	5.656705e+001	-3.336613e+001	-3.658515e+001
123000000	-4.664340e+001	3.420540e+001	-9.071915e-001	3.053382e+001	-9.119038e-001	3.047195e+001	-3.550232e+001	-3.901948e+001
124000000	-4.281735e+001	2.289860e+000	-9.083369e-001	4.419636e+000	-9.181278e-001	4.472760e+000	-3.705967e+001	-2.639535e+001
125000000	-4.227762e+001	-2.068926e+001	-9.142907e-001	-2.160654e+001	-9.269918e-001	-2.172912e+001	-3.556228e+001	-1.340214e+001
126000000	-4.344101e+001	-5.126240e+001	-9.159574e-001	-4.768818e+001	-9.256836e-001	-4.775912e+001	-3.384976e+001	-1.216688e+001
127000000	-5.039225e+001	-7.275420e+001	-9.199750e-001	-7.374613e+001	-9.214430e-001	-7.382300e+001	-3.256621e+001	-2.390254e+001
128000000	-6.367131e+001	7.756279e+001	-9.191335e-001	-9.981935e+001	-9.335637e-001	-9.989831e+001	-3.230526e+001	-3.656275e+001
129000000	-4.437861e+001	5.502922e+001	-9.225725e-001	-1.259495e+002	-9.264615e-001	-1.259036e+002	-3.364947e+001	-4.833705e+001
130000000	-4.051502e+001	2.508811e+001	-9.202515e-001	-1.519975e+002	-9.313207e-001	-1.520271e+002	-3.639104e+001	-5.417844e+001
131000000	-3.879976e+001	-5.744461e+000	-9.327808e-001	-1.780773e+002	-9.432540e-001	-1.781053e+002	-3.963088e+001	-3.982324e+001
132000000	-3.877946e+001	-3.257475e+001	-9.320785e-001	1.558948e+002	-9.436866e-001	1.558142e+002	-3.873717e+001	-1.104500e+001
133000000	-4.072456e+001	-6.673018e+001	-9.352079e-001	1.297877e+002	-9.428237e-001	1.297668e+002	-3.590019e+001	-6.951637e+000
134000000	-4.570297e+001	-9.036288e+001	-9.372417e-001	1.037274e+002	-9.411879e-001	1.036702e+002	-3.368850e+001	-1.928519e+001
135000000	-5.318588e+001	1.409971e+002	-9.363301e-001	7.764533e+001	-9.415113e-001	7.761148e+001	-3.309884e+001	-3.468496e+001
136000000	-4.430712e+001	5.690268e+001	-9.421637e-001	5.157791e+001	-9.548497e-001	5.159256e+001	-3.435904e+001	-5.142251e+001
137000000	-3.911656e+001	1.819476e+001	-9.498368e-001	2.548557e+001	-9.538313e-001	2.544054e+001	-3.676531e+001	-6.369604e+001
138000000	-3.674676e+001	-1.140792e+001	-9.508617e-001	-5.775992e-001	-9.584967e-001	-6.307519e-001	-4.242801e+001	-5.928639e+001
139000000	-3.633932e+001	-4.498830e+001	-9.502969e-001	-2.661656e+001	-9.535376e-001	-2.668034e+001	-4.418680e+001	-4.911891e+000
140000000	-3.663219e+001	-7.677123e+001	-9.492340e-001	-5.271844e+001	-9.616845e-001	-5.279737e+001	-3.873437e+001	5.841223e+000
141000000	-3.845989e+001	-1.125115e+002	-9.504168e-001	-7.876746e+001	-9.737512e-001	-7.885222e+001	-3.620487e+001	1.350140e+000
142000000	-4.159781e+001	-1.560067e+002	-9.578703e-001	-1.048664e+002	-9.748254e-001	-1.048979e+002	-3.545325e+001	-1.714296e+001
143000000	-4.433462e+001	1.294690e+002	-9.596790e-001	-1.309381e+002	-9.648887e-001	-1.310321e+002	-3.662534e+001	-2.547171e+001
144000000	-4.237572e+001	6.369846e+001	-9.685166e-001	-1.570292e+002	-9.841889e-001	-1.569902e+002	-3.882262e+001	-2.538697e+001
145000000	-4.016698e+001	1.605957e+001	-9.672940e-001	1.769150e+002	-9.825074e-001	1.769024e+002	-4.013449e+001	-2.725995e+000
146000000	-3.972040e+001	-2.438636e+001	-9.728909e-001	1.508740e+002	-9.784708e-001	1.508334e+002	-3.717292e+001	1.191492e+001
147000000	-4.127866e+001	-5.773565e+001	-9.707449e-001	1.247893e+002	-9.811788e-001	1.247683e+002	-3.455062e+001	5.123261e+000
148000000	-4.495247e+001	-1.041486e+002	-9.667400e-001	9.869507e+001	-9.824218e-001	9.868584e+001	-3.361713e+001	-9.790385e+000
149000000	-4.963789e+001	1.551042e+002	-9.750097e-001	7.264639e+001	-9.849142e-001	7.266333e+001	-3.396187e+001	-2.632944e+001
150000000	-4.440187e+001	7.869168e+001	-9.841117e-001	4.650839e+001	-9.777903e-001	4.658413e+001	-3.568029e+001	-3.865357e+001
151000000	-3.996124e+001	3.279039e+001	-9.855630e-001	2.043205e+001	-9.946399e-001	2.039946e+001	-4.024181e+001	-4.197682e+001
152000000	-3.776143e+001	-1.898430e+000	-9.866614e-001	-5.604404e+000	-9.905198e-001	-5.658846e+000	-4.435759e+001	-7.420450e-001
153000000	-3.723208e+001	-3.455405e+001	-9.880420e-001	-3.166745e+001	-1.000683e+000	-3.166419e+001	-3.864052e+001	2.499577e+001
154000000	-3.837356e+001	-6.669863e+001	-9.852674e-001	-5.774543e+001	-1.004520e+000	-5.773006e+001	-3.516179e+001	1.798162e+001
155000000	-4.098046e+001	-1.018841e+002	-9.846280e-001	-8.379630e+001	-1.000562e+000	-8.383076e+001	-3.392892e+001	2.599094e+000
156000000	-4.491257e+001	-1.595355e+002	-9.918282e-001	-1.099210e+002	-9.994166e-001	-1.098831e+002	-3.388872e+001	-1.314868e+001
157000000	-4.774818e+001	1.103070e+002	-9.990678e-001	-1.360229e+002	-1.003255e+000	-1.359851e+002	-3.560266e+001	-2.100000e+001
158000000	-4.232871e+001	4.952290e+001	-1.004693e+000	-1.620419e+002	-1.004825e+000	-1.620358e+002	-3.879377e+001	-1.836231e+001
159000000	-4.056975e+001	1.053498e+001	-1.003506e+000	1.718919e+002	-1.012777e+000	1.718170e+002	-3.891495e+001	7.658245e+000
160000000	-4.095039e+001	-2.700615e+001	-1.004984e+000	1.458067e+002	-1.016882e+000	1.457687e+002	-3.581361e+001	1.559807e+001
161000000	-4.324916e+001	-6.544145e+001	-1.002546e+000	1.197141e+002	-1.006120e+000	1.197499e+002	-3.373114e+001	6.733952e+000
162000000	-5.155632e+001	-9.316163e+001	-1.011403e+000	9.365247e+001	-1.021353e+000	9.364832e+001	-3.254569e+001	-1.270736e+001
