!Agilent Technologies,E5071C,MY46106131,A.11.36
!Date: Tue May 13 20:59:50 2025
!Data & Calibration Information:
!Freq	S11:SOLT2(ON)	S21:SOLT2(ON)	S12:SOLT2(ON)	S22:SOLT2(ON)
!PortZ  Port1:50+j0    Port2:50+j0
!Above PortZ is port z conversion or system Z0 setting when saving the data.
!When reading, reference impedance value at option line is always used.
# Hz S dB R 50
10000000	8.903012e-002	-3.945706e+001	3.456390e+000	1.381124e+002	-4.030963e+001	8.393683e+001	-3.387491e-001	-1.096272e+002
11000000	-1.565989e-001	-4.178647e+001	7.369756e+000	1.301407e+002	-3.721779e+001	1.691762e+002	6.346006e-002	-1.202220e+002
12000000	-1.628899e-001	-4.621021e+001	1.094657e+001	1.203400e+002	-2.655988e+001	8.152820e+001	-9.825491e-001	-1.269051e+002
13000000	-1.589448e-001	-4.649235e+001	1.418451e+001	1.149630e+002	-3.961760e+001	-7.906579e+001	-1.009597e+000	-1.376332e+002
14000000	-2.659080e-001	-5.248057e+001	1.675998e+001	1.066603e+002	-4.119812e+001	-1.448091e+002	-5.889430e-001	-1.420582e+002
15000000	-6.612129e-002	-5.781875e+001	1.926950e+001	9.778367e+001	-3.784150e+001	-1.381782e+002	-2.162043e+000	-1.508445e+002
16000000	-2.287527e-001	-6.111263e+001	2.144708e+001	9.018148e+001	-4.241565e+001	1.308121e+002	-2.688189e+000	-1.635128e+002
17000000	-2.088279e-001	-6.365299e+001	2.342999e+001	8.262069e+001	-3.993928e+001	-7.919240e+001	-4.302846e+000	-1.632360e+002
18000000	-2.879918e-001	-6.645761e+001	2.538440e+001	7.554748e+001	-4.550135e+001	-1.778693e+002	-2.916830e+000	-1.714900e+002
19000000	-2.307255e-001	-6.866698e+001	2.695759e+001	6.816265e+001	-3.626252e+001	-4.234932e+001	-4.451990e+000	-1.631775e+002
20000000	-5.049962e-001	-7.259731e+001	2.854660e+001	6.057635e+001	-4.136248e+001	1.203299e+002	-6.358770e+000	-1.797354e+002
21000000	-1.049920e-001	-7.376704e+001	3.009181e+001	5.417984e+001	-3.595184e+001	-5.252746e+001	-5.119043e+000	1.668585e+002
22000000	-4.656982e-001	-7.842596e+001	3.121912e+001	4.637393e+001	-4.096435e+001	-1.129267e+002	-4.034076e+000	-1.656741e+002
23000000	-4.707923e-001	-8.105741e+001	3.258039e+001	3.887876e+001	-4.205263e+001	-1.770277e+002	-9.519518e+000	1.650029e+002
24000000	-3.815174e-001	-8.315348e+001	3.354112e+001	3.195142e+001	-3.902355e+001	3.912673e+001	-7.003108e+000	-1.799612e+002
25000000	-9.458661e-001	-8.831406e+001	3.452717e+001	2.495430e+001	-3.487056e+001	1.689254e+002	-8.863561e+000	1.697390e+002
26000000	-3.246981e-002	-9.287152e+001	3.553806e+001	1.742015e+001	-3.412343e+001	-6.046040e+001	-1.354334e+001	1.640710e+002
27000000	-8.599015e-001	-9.211553e+001	3.617611e+001	1.220370e+001	-4.008408e+001	1.516524e+002	-1.052795e+001	1.764673e+002
28000000	-7.253920e-001	-9.642926e+001	3.684844e+001	5.703443e+000	-3.960490e+001	-1.451384e+002	-1.203272e+001	-1.319700e+002
29000000	-4.532581e-001	-9.803539e+001	3.764830e+001	-4.941385e-001	-4.806063e+001	7.764279e+000	-9.999792e+000	-1.609503e+002
30000000	-7.087629e-002	-1.008593e+002	3.810734e+001	-5.485417e+000	-3.637648e+001	-9.035061e+000	-7.499381e+000	-1.606562e+002
31000000	-6.434063e-001	-1.048811e+002	3.867148e+001	-1.089432e+001	-4.449787e+001	-5.801323e+001	-1.122830e+001	-1.788961e+002
32000000	-6.212925e-001	-1.016538e+002	3.923845e+001	-1.545289e+001	-3.917669e+001	9.767191e+001	-9.875677e+000	-1.545164e+002
33000000	-3.774345e-001	-1.090603e+002	3.973637e+001	-2.065679e+001	-4.394625e+001	-4.972205e+000	-4.740228e+000	-1.561800e+002
34000000	-1.027256e+000	-1.106581e+002	4.017216e+001	-2.498159e+001	-4.300043e+001	-1.305276e+002	-8.971887e+000	1.793992e+002
35000000	-5.785047e-001	-1.112547e+002	4.061540e+001	-2.939187e+001	-4.414249e+001	6.178802e+001	-8.761568e+000	-1.681930e+002
36000000	-7.112834e-001	-1.153414e+002	4.110669e+001	-3.396723e+001	-4.863266e+001	8.032534e+001	-6.033432e+000	1.776021e+002
37000000	-1.035849e+000	-1.150132e+002	4.142367e+001	-3.788454e+001	-3.983377e+001	1.435247e+002	-7.697830e+000	1.771171e+002
38000000	-3.291481e-001	-1.184279e+002	4.178548e+001	-4.155914e+001	-4.023374e+001	8.138239e+001	-4.837649e+000	-1.590545e+002
39000000	-4.210414e-001	-1.199271e+002	4.225736e+001	-4.566535e+001	-4.029363e+001	8.701491e+001	-7.595409e+000	1.701141e+002
40000000	-1.012031e-001	-1.251502e+002	4.251776e+001	-4.892030e+001	-3.814542e+001	1.875923e+001	-5.331113e+000	-1.784941e+002
41000000	-1.179717e+000	-1.234505e+002	4.289263e+001	-5.283989e+001	-4.039551e+001	1.726115e+002	-9.294403e+000	1.796872e+002
42000000	-8.445870e-001	-1.300222e+002	4.324460e+001	-5.563217e+001	-4.926493e+001	-2.560628e+001	-3.323787e+000	1.717063e+002
43000000	-4.210535e-002	-1.377992e+002	4.361181e+001	-5.834430e+001	-3.357664e+001	-7.223776e+000	-2.964482e+000	1.785867e+002
44000000	-1.896649e-003	-1.324194e+002	4.394610e+001	-6.116248e+001	-3.649857e+001	5.795597e+001	-4.706271e+000	-1.764773e+002
45000000	1.304921e-001	-1.301516e+002	4.430198e+001	-6.468451e+001	-3.626825e+001	9.546064e+001	-5.393671e+000	-1.793510e+002
46000000	-1.318266e+000	-1.364252e+002	4.458224e+001	-6.834429e+001	-4.311679e+001	-1.136825e+002	-4.757219e+000	1.551618e+002
47000000	-9.387326e-001	-1.350645e+002	4.484939e+001	-7.109936e+001	-4.681927e+001	1.657669e+002	-6.517848e+000	1.589908e+002
48000000	-9.790079e-001	-1.357875e+002	4.523495e+001	-7.409652e+001	-4.142969e+001	1.732742e+002	-5.705797e+000	1.327948e+002
49000000	-6.916864e-001	-1.350779e+002	4.531231e+001	-7.593500e+001	-3.908748e+001	1.425713e+002	-8.193953e+000	1.721643e+002
50000000	-1.748088e+000	-1.390624e+002	4.560115e+001	-8.018333e+001	-3.961129e+001	-1.541795e+002	-7.093579e+000	1.312789e+002
51000000	9.389103e-002	-1.522377e+002	4.613920e+001	-8.107744e+001	-3.519979e+001	2.824285e+001	-2.636222e+000	1.530132e+002
52000000	-5.245284e-001	-1.422348e+002	4.626476e+001	-8.377425e+001	-3.935293e+001	1.313279e+002	-4.502537e+000	1.631477e+002
53000000	-7.800548e-001	-1.455321e+002	4.658353e+001	-8.660890e+001	-4.394787e+001	1.572637e+002	-6.757921e+000	1.668735e+002
54000000	-1.448936e-001	-1.384862e+002	4.676311e+001	-8.906938e+001	-3.375381e+001	1.560414e+002	-8.750190e+000	1.671206e+002
55000000	-8.404175e-001	-1.483550e+002	4.704177e+001	-9.137636e+001	-4.471955e+001	1.500797e+002	-6.809867e+000	1.602250e+002
56000000	4.383499e-001	-1.562424e+002	4.733519e+001	-9.466242e+001	-3.550076e+001	8.035465e+001	-5.098401e+000	1.467069e+002
57000000	1.256193e-001	-1.510111e+002	4.758746e+001	-9.682028e+001	-3.726621e+001	1.245724e+002	-6.177834e+000	1.481668e+002
58000000	-1.356860e+000	-1.519466e+002	4.798937e+001	-1.000313e+002	-4.217962e+001	-1.405299e+002	-7.554195e+000	1.296457e+002
59000000	-7.257724e-001	-1.588011e+002	4.809948e+001	-1.021328e+002	-4.833335e+001	1.000254e+002	-6.080968e+000	1.581394e+002
60000000	-1.922532e-001	-1.539385e+002	4.845179e+001	-1.040006e+002	-3.961112e+001	1.585864e+002	-6.780535e+000	1.518584e+002
61000000	-1.636020e+000	-1.590031e+002	4.852209e+001	-1.070268e+002	-4.817813e+001	-1.097636e+002	-7.435382e+000	1.047491e+002
62000000	-1.538065e+000	-1.588914e+002	4.887662e+001	-1.093062e+002	-4.494893e+001	-1.260269e+002	-6.372293e+000	1.474731e+002
63000000	-2.437428e+000	-1.631052e+002	4.909256e+001	-1.117868e+002	-4.186124e+001	-7.228489e+001	-1.092270e+001	1.255029e+002
64000000	-2.162125e+000	-1.632798e+002	4.928906e+001	-1.140150e+002	-4.307471e+001	-9.180054e+001	-9.928093e+000	1.069724e+002
65000000	-2.462384e+000	-1.771134e+002	4.962087e+001	-1.171302e+002	-3.858618e+001	-1.390834e+001	-4.880127e+000	1.097758e+002
66000000	-2.440616e+000	-1.621017e+002	4.976788e+001	-1.183456e+002	-4.101122e+001	-9.117095e+001	-1.052626e+001	1.058939e+002
67000000	-3.692020e-001	-1.594030e+002	5.003671e+001	-1.214776e+002	-3.777673e+001	-1.628821e+002	-7.799158e+000	1.309652e+002
68000000	1.927715e+000	-1.762765e+002	5.042996e+001	-1.242271e+002	-3.227812e+001	1.198639e+002	-3.085240e+000	1.463991e+002
69000000	-1.111408e+000	-1.651414e+002	5.064155e+001	-1.256042e+002	-4.308744e+001	-1.346235e+002	-9.126241e+000	1.384960e+002
70000000	5.375547e-002	-1.681161e+002	5.087110e+001	-1.282396e+002	-3.977473e+001	-1.797811e+002	-8.274075e+000	1.298239e+002
71000000	4.661719e-001	-1.727480e+002	5.108817e+001	-1.302176e+002	-3.912546e+001	1.538519e+002	-7.958709e+000	1.456875e+002
72000000	-2.266129e+000	-1.785089e+002	5.119062e+001	-1.325889e+002	-4.847962e+001	-2.749959e+001	-9.868332e+000	1.044297e+002
73000000	-2.157158e+000	-1.717262e+002	5.141918e+001	-1.347648e+002	-4.401676e+001	-8.302930e+001	-1.252856e+001	1.314102e+002
74000000	-1.170148e+000	-1.789205e+002	5.157924e+001	-1.380895e+002	-6.464939e+001	-1.235664e+002	-1.069002e+001	1.070657e+002
75000000	-2.570584e+000	1.750577e+002	5.160981e+001	-1.403180e+002	-4.504282e+001	-1.867894e+000	-7.000491e+000	7.606807e+001
76000000	2.259590e+000	1.688966e+002	5.222518e+001	-1.428888e+002	-3.286500e+001	1.348845e+002	-5.530473e+000	1.318685e+002
77000000	-1.836752e+000	1.750101e+002	5.216552e+001	-1.449902e+002	-5.764844e+001	-8.115520e+000	-1.147242e+001	9.478612e+001
78000000	-3.027363e-001	-1.739412e+002	5.245491e+001	-1.464847e+002	-4.000722e+001	-1.290544e+002	-2.144675e+001	1.323428e+002
79000000	-4.421494e-001	1.746303e+002	5.270419e+001	-1.498798e+002	-4.526936e+001	1.787984e+002	-1.144324e+001	1.380479e+002
80000000	-8.054531e-001	1.559831e+002	5.279358e+001	-1.516739e+002	-3.852492e+001	8.900934e+001	-8.050547e+000	1.126830e+002
81000000	-2.173461e+000	1.669566e+002	5.292348e+001	-1.540027e+002	-4.852915e+001	3.255375e+001	-1.417825e+001	5.932827e+001
82000000	-1.371630e+000	1.781669e+002	5.326077e+001	-1.561091e+002	-4.551683e+001	-8.872732e+001	-2.264883e+001	1.318542e+002
83000000	-1.005460e+000	1.445648e+002	5.319952e+001	-1.585365e+002	-3.640331e+001	8.551652e+001	-5.760091e+000	7.168592e+001
84000000	-1.236527e+000	1.565350e+002	5.344709e+001	-1.609098e+002	-4.276098e+001	9.776215e+001	-1.130847e+001	9.272752e+001
85000000	-6.330865e-001	1.612816e+002	5.365095e+001	-1.641838e+002	-4.585617e+001	1.518749e+002	-8.475463e+000	1.062548e+002
86000000	-8.705273e-001	1.671104e+002	5.398045e+001	-1.657385e+002	-5.164059e+001	-1.303169e+002	-1.847747e+001	1.280884e+002
87000000	-1.657222e+000	1.630768e+002	5.403470e+001	-1.680737e+002	-6.350452e+001	1.911267e+001	-1.204840e+001	9.830212e+001
88000000	-2.536309e+000	1.649861e+002	5.424095e+001	-1.704411e+002	-4.862816e+001	-3.732756e+000	-1.707281e+001	1.151237e+002
89000000	-2.309550e+000	1.564415e+002	5.439039e+001	-1.722180e+002	-4.766289e+001	7.038652e+001	-1.497882e+001	9.908748e+001
90000000	-1.441954e+001	1.607608e+002	5.453564e+001	-1.732054e+002	-3.264440e+001	2.493614e+001	-3.742870e+000	-1.372404e+001
91000000	-5.669240e+000	1.377861e+002	5.453359e+001	-1.768774e+002	-3.704442e+001	5.642832e+001	-8.225127e+000	2.433076e+001
92000000	-9.952369e-001	1.468193e+002	5.468830e+001	-1.797600e+002	-4.346761e+001	1.389677e+002	-1.102793e+001	6.515882e+001
93000000	-5.770914e-001	1.659626e+002	5.487585e+001	1.784446e+002	-4.469257e+001	-8.832493e+001	-1.363611e+001	9.613611e+001
94000000	-2.683917e+000	1.479258e+002	5.500294e+001	1.763615e+002	-4.584259e+001	8.482705e+001	-1.191066e+001	5.727890e+001
95000000	-1.107828e+000	1.669344e+002	5.533128e+001	1.729618e+002	-4.352919e+001	-5.902819e+001	-1.696289e+001	-1.621576e+002
96000000	-1.473147e+000	1.502464e+002	5.536212e+001	1.706000e+002	-5.577175e+001	1.634715e+002	-1.324094e+001	1.400371e+002
97000000	-1.386865e+000	1.630492e+002	5.562697e+001	1.698526e+002	-4.561748e+001	-4.959687e+001	-1.654464e+001	-9.333620e+001
98000000	-1.049967e+000	1.439821e+002	5.574894e+001	1.663709e+002	-4.886507e+001	1.722196e+002	-1.316832e+001	1.476613e+002
99000000	-2.335815e+000	1.572081e+002	5.597957e+001	1.645322e+002	-4.803591e+001	-3.492337e+000	-9.973249e+000	-1.569444e+002
100000000	-1.518540e+000	1.471096e+002	5.598155e+001	1.618156e+002	-5.860906e+001	-1.613018e+002	-1.671631e+001	1.647220e+002
101000000	-2.665998e+000	1.454613e+002	5.597787e+001	1.610900e+002	-5.071826e+001	8.746168e+001	-1.388937e+001	4.401230e+001
102000000	-2.027059e+000	1.366444e+002	5.630792e+001	1.576618e+002	-4.729329e+001	1.391205e+002	-1.060794e+001	-1.650323e+002
103000000	8.962245e-001	1.432446e+002	5.612986e+001	1.541734e+002	-4.057098e+001	-1.189820e+002	-4.273964e+000	1.337397e+002
104000000	-4.395639e+000	1.591833e+002	5.661581e+001	1.545231e+002	-4.185295e+001	3.632501e+001	-1.074083e+001	-6.961321e+001
105000000	-1.000416e-001	1.511949e+002	5.649827e+001	1.506363e+002	-4.351772e+001	-6.727653e+001	-9.535805e+000	1.617174e+002
106000000	-6.665347e-001	1.500655e+002	5.670945e+001	1.488523e+002	-4.576506e+001	-5.206488e+001	-9.888680e+000	-1.737627e+002
107000000	-3.000175e+000	1.203400e+002	5.666828e+001	1.467292e+002	-4.192230e+001	1.439454e+002	-1.810910e+001	8.630608e+001
108000000	-6.136360e+000	1.488409e+002	5.702230e+001	1.454090e+002	-4.066476e+001	7.134297e+001	-8.621880e+000	-7.510819e+001
109000000	-4.830930e+000	1.563142e+002	5.709634e+001	1.429506e+002	-4.127564e+001	5.521680e+001	-1.304460e+001	-9.693340e+001
110000000	-5.137479e+000	1.056617e+002	5.722674e+001	1.412780e+002	-3.783923e+001	1.329493e+002	-1.319551e+001	-1.889910e+001
111000000	-1.705752e+000	1.768603e+002	5.728596e+001	1.380775e+002	-3.619983e+001	2.157112e+001	-7.026897e+000	-1.401856e+002
112000000	-6.744636e+000	1.402770e+002	5.749387e+001	1.363823e+002	-4.024111e+001	9.070424e+001	-1.415923e+001	-1.259328e+002
113000000	-9.828156e-001	1.169864e+002	5.746936e+001	1.344874e+002	-4.211394e+001	-1.580330e+002	-2.021071e+001	1.659558e+002
114000000	-2.761170e+000	1.411826e+002	5.750399e+001	1.313651e+002	-5.021301e+001	4.907344e+001	-1.006711e+001	1.783337e+002
115000000	-5.788067e+000	1.088700e+002	5.772092e+001	1.305996e+002	-3.963712e+001	1.429184e+002	-1.043747e+001	-1.109041e+001
116000000	7.796497e-001	8.593316e+001	5.761014e+001	1.297373e+002	-3.344290e+001	-1.590164e+002	-3.365894e+000	4.559613e+001
117000000	-3.422639e+000	1.265269e+002	5.791475e+001	1.253395e+002	-4.897519e+001	1.412785e+002	-1.385572e+001	-1.702087e+002
118000000	-1.913766e+000	1.322016e+002	5.785905e+001	1.234995e+002	-5.929895e+001	-8.998542e+000	-9.966310e+000	1.477538e+002
119000000	-2.069662e+000	1.292663e+002	5.809024e+001	1.212990e+002	-8.061541e+001	-1.471532e+002	-1.195298e+001	1.417338e+002
120000000	-3.467869e+000	1.086015e+002	5.820443e+001	1.190993e+002	-4.327194e+001	-1.744482e+002	-1.655958e+001	-1.275797e+002
121000000	-1.949532e+000	1.270155e+002	5.830382e+001	1.166701e+002	-6.445857e+001	-6.762080e+001	-9.890579e+000	1.545949e+002
122000000	-1.203111e+000	1.261973e+002	5.839163e+001	1.147748e+002	-5.208544e+001	-4.301908e+001	-1.594634e+001	1.374502e+002
123000000	3.382533e+000	1.136892e+002	5.825165e+001	1.144003e+002	-3.450213e+001	-6.660952e+001	-2.293262e+000	9.620134e+001
124000000	-3.669734e+000	8.092514e+001	5.871271e+001	1.113612e+002	-3.725578e+001	-1.605672e+002	-8.718945e+000	1.733042e+001
125000000	-1.999863e+000	1.460686e+002	5.857799e+001	1.077650e+002	-4.194711e+001	6.183390e+001	-1.086686e+001	1.726766e+002
126000000	-3.834949e+000	1.163504e+002	5.871797e+001	1.060497e+002	-4.936271e+001	1.738021e+002	-1.149256e+001	1.676686e+002
127000000	-3.958651e+000	1.149446e+002	5.885600e+001	1.048124e+002	-4.881831e+001	-1.792285e+002	-2.379835e+001	1.231999e+002
128000000	-4.285961e+000	6.617229e+001	5.915739e+001	1.029163e+002	-3.586154e+001	-1.525273e+002	-7.589366e+000	6.984169e+000
129000000	-2.724846e+000	9.274368e+001	5.902092e+001	1.008832e+002	-4.133547e+001	-1.285686e+002	-1.052497e+001	7.240039e+001
130000000	-5.339681e-001	1.273211e+002	5.897998e+001	9.773696e+001	-4.520431e+001	2.550554e+001	-6.852494e+000	1.496420e+002
131000000	-2.388972e-001	9.634118e+001	5.917510e+001	9.621456e+001	-4.074416e+001	-8.111312e+001	-9.864787e+000	1.123302e+002
132000000	-1.417685e+000	8.597895e+001	5.920415e+001	9.411077e+001	-3.967435e+001	-1.015870e+002	-7.673557e+000	9.010790e+001
133000000	-1.969437e+000	1.183309e+002	5.927339e+001	9.165125e+001	-5.974926e+001	4.146730e+001	-7.402229e+000	1.416542e+002
134000000	-1.703920e+000	1.236271e+002	5.918972e+001	8.918470e+001	-4.896558e+001	5.989508e+001	-7.068189e+000	1.531342e+002
135000000	-1.909167e+000	1.550719e+002	5.924883e+001	8.538282e+001	-3.729977e+001	1.077735e+002	-1.758231e+000	-1.579658e+002
136000000	-1.300031e+000	1.230468e+002	5.946634e+001	8.506756e+001	-4.710891e+001	6.323820e+001	-9.915468e+000	1.565109e+002
137000000	-2.312893e+000	1.006033e+002	5.967060e+001	8.330132e+001	-4.957151e+001	-7.702863e+001	-1.039189e+001	1.079981e+002
138000000	-4.494521e+000	1.243277e+002	5.957014e+001	8.111445e+001	-4.610274e+001	1.525781e+002	-9.645114e+000	1.722152e+002
139000000	-2.927103e+000	8.880518e+001	5.983059e+001	7.910158e+001	-4.417965e+001	-9.047273e+001	-1.377662e+001	2.628610e+001
140000000	7.531969e-001	9.882867e+001	5.977924e+001	7.840365e+001	-4.103610e+001	-8.665783e+000	-2.721303e+000	1.081105e+002
141000000	-1.845608e+000	9.429353e+001	5.992987e+001	7.498995e+001	-4.712319e+001	-5.366517e+001	-1.085152e+001	1.381358e+002
142000000	-4.103295e-001	1.149483e+002	5.970786e+001	7.317527e+001	-4.460294e+001	6.316119e+001	-3.771619e+000	1.312280e+002
143000000	-2.106035e+000	1.039733e+002	5.996955e+001	7.169171e+001	-5.608561e+001	-7.451121e+000	-9.004422e+000	1.129364e+002
144000000	-2.112526e+000	1.793040e+002	5.982282e+001	6.650058e+001	-3.333997e+001	1.621718e+002	1.971746e-001	-1.453137e+002
145000000	-5.905627e-001	9.255550e+001	6.025441e+001	6.747683e+001	-4.437750e+001	-9.376466e+000	-8.452756e+000	1.037678e+002
146000000	-4.368353e+000	9.006033e+001	6.022859e+001	6.396115e+001	-4.662134e+001	-8.989062e+001	-1.881057e+001	-2.136775e+001
147000000	-3.726436e+000	9.591114e+001	6.029570e+001	6.211769e+001	-5.145400e+001	-9.287981e+001	-1.323509e+001	1.073615e+002
148000000	-9.801070e+000	1.131578e+002	6.023801e+001	5.953595e+001	-4.044246e+001	-1.374766e+002	-1.355000e+001	-1.746205e+002
149000000	1.023283e-001	1.246188e+002	6.015058e+001	5.899144e+001	-3.977803e+001	1.205833e+002	-4.727316e+000	1.522409e+002
150000000	-5.720672e+000	1.416457e+002	6.016273e+001	5.577493e+001	-3.921588e+001	-1.652602e+002	-6.379257e+000	-1.784693e+002
151000000	-6.070925e-001	9.221002e+001	6.052075e+001	5.579069e+001	-4.590042e+001	3.668146e+001	-4.067060e+000	9.021605e+001
152000000	-1.243979e+000	8.494058e+001	6.053509e+001	5.265555e+001	-4.541763e+001	1.120583e+001	-6.288156e+000	1.040279e+002
153000000	-9.398437e-001	1.036038e+002	6.050915e+001	5.102945e+001	-4.742112e+001	1.033049e+002	-4.897960e+000	1.319640e+002
154000000	-1.859992e+001	3.506331e+001	6.058330e+001	4.689697e+001	-3.663269e+001	-9.476278e+001	-1.170443e+001	-8.886378e+001
155000000	-3.943907e+000	1.112676e+002	6.061841e+001	4.638696e+001	-4.743430e+001	-1.573183e+002	-1.419671e+001	1.372523e+002
156000000	-8.214139e+000	8.541124e+001	6.059485e+001	4.463706e+001	-4.257289e+001	-8.626095e+001	-1.856392e+001	1.605607e+002
157000000	-3.850603e+000	1.485216e+002	6.047124e+001	4.219493e+001	-3.708848e+001	-1.495691e+002	-3.309148e+000	-1.693853e+002
158000000	-1.759348e+000	9.873849e+001	6.073697e+001	4.164693e+001	-4.971745e+001	1.350320e+002	-5.158774e+000	1.272804e+002
159000000	2.121445e-001	8.732190e+001	6.099565e+001	3.926691e+001	-4.312471e+001	8.285077e+001	-1.879556e+000	9.469985e+001
160000000	-1.317450e+000	1.056795e+002	6.090931e+001	3.745051e+001	-4.547271e+001	1.607408e+002	-6.079669e+000	1.245383e+002
161000000	-1.024624e+001	1.241909e+002	6.073257e+001	3.423921e+001	-3.958546e+001	-9.900758e+001	-9.335484e+000	-1.085582e+002
162000000	2.188031e-001	5.923286e+001	6.108733e+001	3.244248e+001	-3.848425e+001	3.671162e+001	-1.437431e+000	6.256785e+001
163000000	-6.946336e+000	7.519468e+001	6.099279e+001	3.130683e+001	-4.441346e+001	-5.219206e+001	-9.332710e+000	1.061778e+002
164000000	-4.812763e+000	1.173065e+002	6.092982e+001	2.962976e+001	-4.253929e+001	-1.205293e+002	-8.650632e+000	1.590025e+002
