!Agilent Technologies,E5071C,MY46106131,A.11.36
!Date: Thu Jul 10 17:56:40 2025
!Data & Calibration Information:
!Freq	S11:SOLT2(ON)
!PortZ  Port1:50+j0
!Above PortZ is port z conversion or system Z0 setting when saving the data.
!When reading, reference impedance value at option line is always used.
# Hz S dB R 50
10000000	-3.475295e-001	7.544730e+001
11000000	-3.570135e-001	6.519995e+001
12000000	-3.392798e-001	5.503143e+001
13000000	-3.459114e-001	4.491182e+001
14000000	-3.316538e-001	3.477377e+001
15000000	-3.141370e-001	2.464300e+001
16000000	-3.160369e-001	1.459815e+001
17000000	-3.113087e-001	4.546463e+000
18000000	-2.881159e-001	-5.355322e+000
19000000	-2.974188e-001	-1.541506e+001
20000000	-2.997082e-001	-2.514056e+001
21000000	-3.377591e-001	-3.501432e+001
22000000	-4.274496e-001	-4.457189e+001
23000000	-2.881667e-001	-5.305259e+001
24000000	-2.333438e-001	-6.301109e+001
25000000	-2.388990e-001	-7.273710e+001
26000000	-2.279222e-001	-8.226509e+001
27000000	-2.360915e-001	-9.172453e+001
28000000	-2.330612e-001	-1.010266e+002
29000000	-2.445170e-001	-1.103961e+002
30000000	-2.579729e-001	-1.196234e+002
31000000	-2.736089e-001	-1.288489e+002
32000000	-3.018117e-001	-1.380695e+002
33000000	-3.183961e-001	-1.471667e+002
34000000	-3.188036e-001	-1.562679e+002
35000000	-3.385993e-001	-1.653704e+002
36000000	-3.524696e-001	-1.745312e+002
37000000	-3.719470e-001	1.764533e+002
38000000	-3.954050e-001	1.673938e+002
39000000	-4.180140e-001	1.583203e+002
40000000	-4.324290e-001	1.492215e+002
41000000	-4.666789e-001	1.401253e+002
42000000	-4.831153e-001	1.310280e+002
43000000	-5.025684e-001	1.219213e+002
44000000	-5.293250e-001	1.128783e+002
45000000	-5.535022e-001	1.036429e+002
46000000	-5.685591e-001	9.453605e+001
47000000	-5.734581e-001	8.539542e+001
48000000	-5.867797e-001	7.627286e+001
49000000	-6.017499e-001	6.699252e+001
50000000	-6.067076e-001	5.775647e+001
51000000	-6.277106e-001	4.839246e+001
52000000	-6.440095e-001	3.906195e+001
53000000	-6.567824e-001	2.952227e+001
54000000	-7.385776e-001	1.973208e+001
55000000	-9.146099e-001	9.877280e+000
56000000	-1.253943e+000	9.037855e-001
57000000	-1.553903e+000	-5.328586e+000
58000000	-1.323293e+000	-1.172740e+001
59000000	-1.029343e+000	-2.026376e+001
60000000	-8.713872e-001	-2.973268e+001
61000000	-8.187563e-001	-3.927809e+001
62000000	-8.030022e-001	-4.860927e+001
63000000	-8.351356e-001	-5.777139e+001
64000000	-8.916762e-001	-6.692272e+001
65000000	-9.257276e-001	-7.583776e+001
66000000	-1.042904e+000	-8.476561e+001
67000000	-1.199142e+000	-9.319768e+001
68000000	-1.313790e+000	-1.002654e+002
69000000	-1.132822e+000	-1.081286e+002
70000000	-1.095822e+000	-1.168288e+002
71000000	-1.072260e+000	-1.249629e+002
72000000	-9.986578e-001	-1.333773e+002
73000000	-9.561978e-001	-1.420516e+002
74000000	-9.349629e-001	-1.506832e+002
75000000	-9.244988e-001	-1.593044e+002
76000000	-9.042018e-001	-1.680052e+002
77000000	-9.119811e-001	-1.766565e+002
78000000	-9.270968e-001	1.747504e+002
79000000	-9.407587e-001	1.662490e+002
80000000	-9.511757e-001	1.576922e+002
81000000	-9.583175e-001	1.492180e+002
82000000	-9.722026e-001	1.407464e+002
83000000	-9.634839e-001	1.322052e+002
84000000	-9.712513e-001	1.235830e+002
85000000	-9.614621e-001	1.150142e+002
86000000	-9.555486e-001	1.063726e+002
87000000	-9.536346e-001	9.771607e+001
88000000	-9.501826e-001	8.905916e+001
89000000	-9.537365e-001	8.048284e+001
90000000	-9.419517e-001	7.172669e+001
91000000	-9.336184e-001	6.294225e+001
92000000	-9.139882e-001	5.422155e+001
93000000	-8.972622e-001	4.542014e+001
94000000	-8.755014e-001	3.652706e+001
95000000	-8.456255e-001	2.758547e+001
96000000	-8.294725e-001	1.865336e+001
97000000	-8.098524e-001	9.655149e+000
98000000	-7.893622e-001	6.239330e-001
99000000	-7.775334e-001	-8.482762e+000
100000000	-7.691414e-001	-1.759635e+001
101000000	-7.625478e-001	-2.666218e+001
102000000	-7.489870e-001	-3.585089e+001
103000000	-7.385778e-001	-4.505582e+001
104000000	-7.401019e-001	-5.429668e+001
105000000	-7.524714e-001	-6.341522e+001
106000000	-7.384384e-001	-7.268452e+001
107000000	-7.485612e-001	-8.187207e+001
108000000	-7.541886e-001	-9.111955e+001
109000000	-7.628668e-001	-1.004138e+002
110000000	-7.792535e-001	-1.098147e+002
111000000	-8.051295e-001	-1.191690e+002
112000000	-8.316529e-001	-1.285357e+002
113000000	-8.639525e-001	-1.379435e+002
114000000	-8.946925e-001	-1.473973e+002
115000000	-9.237672e-001	-1.569045e+002
116000000	-9.700198e-001	-1.663159e+002
117000000	-9.894965e-001	-1.757875e+002
118000000	-1.031253e+000	1.747043e+002
119000000	-1.083629e+000	1.652936e+002
120000000	-1.117958e+000	1.557412e+002
121000000	-1.156422e+000	1.461394e+002
122000000	-1.199074e+000	1.365875e+002
123000000	-1.236697e+000	1.269640e+002
124000000	-1.266286e+000	1.173078e+002
125000000	-1.273386e+000	1.075286e+002
126000000	-1.304857e+000	9.762003e+001
127000000	-1.325440e+000	8.761348e+001
128000000	-1.355599e+000	7.753194e+001
129000000	-1.381498e+000	6.746039e+001
130000000	-1.406559e+000	5.729221e+001
131000000	-1.421953e+000	4.708024e+001
132000000	-1.443249e+000	3.666706e+001
133000000	-1.456810e+000	2.626919e+001
134000000	-1.481146e+000	1.577733e+001
135000000	-1.501042e+000	5.407694e+000
136000000	-1.522874e+000	-5.006477e+000
137000000	-1.522231e+000	-1.547401e+001
138000000	-1.541305e+000	-2.606335e+001
139000000	-1.551347e+000	-3.659444e+001
140000000	-1.529967e+000	-4.719561e+001
141000000	-1.560752e+000	-5.788275e+001
142000000	-1.580045e+000	-6.844751e+001
143000000	-1.605375e+000	-7.894076e+001
144000000	-1.624344e+000	-8.955236e+001
145000000	-1.662641e+000	-1.002218e+002
146000000	-1.721508e+000	-1.105908e+002
147000000	-1.765735e+000	-1.211396e+002
148000000	-1.884602e+000	-1.317765e+002
149000000	-2.105812e+000	-1.420451e+002
150000000	-2.312555e+000	-1.511618e+002
151000000	-2.418369e+000	-1.595034e+002
152000000	-2.382413e+000	-1.685064e+002
153000000	-2.372342e+000	-1.773607e+002
154000000	-2.329623e+000	1.737448e+002
155000000	-2.196440e+000	1.649184e+002
156000000	-2.022101e+000	1.554128e+002
157000000	-1.847562e+000	1.453609e+002
158000000	-1.766399e+000	1.348973e+002
159000000	-1.751289e+000	1.243271e+002
160000000	-1.830948e+000	1.136140e+002
161000000	-2.092681e+000	1.034324e+002
162000000	-2.283927e+000	9.615751e+001
163000000	-2.083206e+000	8.789700e+001
164000000	-1.867406e+000	7.867674e+001
165000000	-1.670050e+000	6.848602e+001
166000000	-1.585977e+000	5.808499e+001
167000000	-1.534886e+000	4.780397e+001
168000000	-1.493532e+000	3.755388e+001
169000000	-1.462147e+000	2.724609e+001
170000000	-1.442765e+000	1.697232e+001
171000000	-1.482685e+000	6.351100e+000
172000000	-1.516497e+000	-4.055135e+000
173000000	-1.546030e+000	-1.427683e+001
174000000	-1.586219e+000	-2.449944e+001
175000000	-1.592141e+000	-3.477695e+001
176000000	-1.607839e+000	-4.499242e+001
177000000	-1.637294e+000	-5.515368e+001
178000000	-1.683322e+000	-6.550163e+001
179000000	-1.763644e+000	-7.577019e+001
180000000	-1.870943e+000	-8.565358e+001
181000000	-1.913117e+000	-9.534480e+001
182000000	-1.947650e+000	-1.050715e+002
183000000	-1.969587e+000	-1.151421e+002
184000000	-2.024613e+000	-1.252723e+002
185000000	-2.141613e+000	-1.355578e+002
186000000	-2.326068e+000	-1.457937e+002
187000000	-2.556802e+000	-1.554430e+002
188000000	-2.850649e+000	-1.646475e+002
189000000	-3.138237e+000	-1.734973e+002
190000000	-3.501815e+000	1.783037e+002
191000000	-3.818646e+000	1.715133e+002
192000000	-3.965755e+000	1.651801e+002
193000000	-4.020715e+000	1.590910e+002
194000000	-3.856470e+000	1.530448e+002
195000000	-3.574752e+000	1.461090e+002
196000000	-3.270026e+000	1.379219e+002
197000000	-3.109997e+000	1.291191e+002
198000000	-2.987114e+000	1.211900e+002
199000000	-2.713520e+000	1.125837e+002
200000000	-2.550575e+000	1.031278e+002
201000000	-2.438817e+000	9.392504e+001
202000000	-2.351882e+000	8.479308e+001
203000000	-2.265142e+000	7.552424e+001
204000000	-2.231551e+000	6.633360e+001
205000000	-2.180207e+000	5.714411e+001
206000000	-2.125367e+000	4.795173e+001
207000000	-2.084822e+000	3.854743e+001
208000000	-2.087985e+000	2.926667e+001
209000000	-2.068295e+000	2.010097e+001
210000000	-2.031940e+000	1.091423e+001
211000000	-2.008238e+000	1.531929e+000
212000000	-2.002388e+000	-7.759423e+000
213000000	-1.986634e+000	-1.714132e+001
214000000	-1.949021e+000	-2.648359e+001
215000000	-1.979123e+000	-3.610969e+001
216000000	-1.979183e+000	-4.542531e+001
217000000	-1.979284e+000	-5.475986e+001
218000000	-1.952928e+000	-6.409183e+001
219000000	-1.922361e+000	-7.406170e+001
220000000	-1.927668e+000	-8.398117e+001
221000000	-1.995595e+000	-9.364403e+001
222000000	-2.029388e+000	-1.032565e+002
223000000	-2.064054e+000	-1.128314e+002
224000000	-2.116124e+000	-1.222312e+002
225000000	-2.109541e+000	-1.316652e+002
226000000	-2.123823e+000	-1.414659e+002
227000000	-2.163873e+000	-1.514037e+002
228000000	-2.227121e+000	-1.614373e+002
229000000	-2.333728e+000	-1.714877e+002
230000000	-2.453415e+000	1.785528e+002
231000000	-2.591187e+000	1.684005e+002
232000000	-2.761669e+000	1.581643e+002
233000000	-2.982305e+000	1.484863e+002
234000000	-3.106551e+000	1.387291e+002
235000000	-3.249617e+000	1.283555e+002
236000000	-3.486082e+000	1.179041e+002
237000000	-3.750856e+000	1.072398e+002
238000000	-4.123708e+000	9.678948e+001
239000000	-4.539658e+000	8.690734e+001
240000000	-4.911536e+000	7.759157e+001
241000000	-5.212330e+000	6.805991e+001
242000000	-5.605433e+000	5.837706e+001
243000000	-5.934967e+000	4.926157e+001
244000000	-6.208891e+000	3.969585e+001
245000000	-6.496213e+000	3.020360e+001
246000000	-6.787834e+000	2.167068e+001
247000000	-6.748142e+000	1.340565e+001
248000000	-6.499358e+000	2.715286e+000
249000000	-6.427916e+000	-9.742466e+000
250000000	-6.524316e+000	-2.256952e+001
251000000	-6.793312e+000	-3.486166e+001
252000000	-6.919618e+000	-4.606340e+001
253000000	-6.874054e+000	-5.825605e+001
254000000	-6.863373e+000	-7.165528e+001
255000000	-6.901215e+000	-8.548838e+001
256000000	-7.053034e+000	-9.965452e+001
257000000	-7.332450e+000	-1.130242e+002
258000000	-7.385168e+000	-1.255291e+002
259000000	-7.373612e+000	-1.394086e+002
260000000	-7.438014e+000	-1.532077e+002
261000000	-7.357620e+000	-1.672375e+002
262000000	-7.271401e+000	1.769641e+002
263000000	-7.493394e+000	1.603840e+002
264000000	-7.929076e+000	1.445227e+002
265000000	-8.431486e+000	1.295732e+002
266000000	-9.161592e+000	1.155652e+002
267000000	-9.894577e+000	1.054727e+002
268000000	-9.874227e+000	9.657714e+001
269000000	-9.630564e+000	8.430687e+001
270000000	-9.612544e+000	7.050730e+001
271000000	-9.725180e+000	5.781697e+001
272000000	-9.648846e+000	4.498950e+001
273000000	-9.666505e+000	3.091506e+001
274000000	-9.779995e+000	1.773109e+001
275000000	-9.864331e+000	4.409160e+000
276000000	-9.876588e+000	-8.994294e+000
277000000	-1.003948e+001	-2.329131e+001
278000000	-1.046629e+001	-3.691580e+001
279000000	-1.085580e+001	-4.832738e+001
280000000	-1.100544e+001	-5.874053e+001
281000000	-1.078260e+001	-7.104360e+001
282000000	-1.089531e+001	-8.650359e+001
283000000	-1.173400e+001	-1.018804e+002
284000000	-1.311663e+001	-1.115260e+002
285000000	-1.391130e+001	-1.143720e+002
286000000	-1.360341e+001	-1.171798e+002
287000000	-1.292736e+001	-1.251297e+002
288000000	-1.244236e+001	-1.358791e+002
289000000	-1.233384e+001	-1.483897e+002
290000000	-1.280953e+001	-1.599969e+002
291000000	-1.330623e+001	-1.666756e+002
292000000	-1.327650e+001	-1.723629e+002
293000000	-1.293169e+001	-1.790028e+002
294000000	-1.254951e+001	1.720404e+002
295000000	-1.233435e+001	1.621899e+002
296000000	-1.227002e+001	1.528603e+002
297000000	-1.200853e+001	1.439555e+002
298000000	-1.160617e+001	1.331312e+002
299000000	-1.144432e+001	1.195490e+002
300000000	-1.184188e+001	1.054238e+002
301000000	-1.257416e+001	9.382536e+001
302000000	-1.320380e+001	8.350167e+001
303000000	-1.401995e+001	7.246124e+001
304000000	-1.519507e+001	6.407258e+001
305000000	-1.624646e+001	6.010755e+001
306000000	-1.623066e+001	5.681585e+001
307000000	-1.615786e+001	4.574549e+001
308000000	-1.705093e+001	3.213380e+001
309000000	-1.909550e+001	2.272882e+001
310000000	-2.106147e+001	2.433749e+001
311000000	-2.130620e+001	2.685228e+001
312000000	-2.171947e+001	2.246420e+001
313000000	-2.273887e+001	2.185855e+001
314000000	-2.327137e+001	2.442934e+001
315000000	-2.337205e+001	2.417426e+001
316000000	-2.373543e+001	2.877182e+001
317000000	-2.302203e+001	3.244923e+001
318000000	-2.196011e+001	3.439579e+001
319000000	-2.032885e+001	3.283266e+001
320000000	-1.882973e+001	2.575000e+001
321000000	-1.779545e+001	1.580614e+001
322000000	-1.725767e+001	5.729251e+000
323000000	-1.699268e+001	-2.434770e+000
324000000	-1.647795e+001	-7.751851e+000
325000000	-1.551632e+001	-1.500890e+001
326000000	-1.457427e+001	-2.474147e+001
327000000	-1.384009e+001	-3.525114e+001
328000000	-1.305740e+001	-4.699346e+001
329000000	-1.247487e+001	-6.022460e+001
330000000	-1.218230e+001	-7.416929e+001
331000000	-1.205000e+001	-8.684284e+001
332000000	-1.188669e+001	-1.002448e+002
333000000	-1.196431e+001	-1.144459e+002
334000000	-1.230320e+001	-1.287248e+002
335000000	-1.304524e+001	-1.423288e+002
336000000	-1.398888e+001	-1.526647e+002
337000000	-1.467274e+001	-1.617430e+002
338000000	-1.543999e+001	-1.720494e+002
339000000	-1.667343e+001	1.786658e+002
340000000	-1.836948e+001	1.732061e+002
341000000	-2.003940e+001	1.732672e+002
342000000	-2.139038e+001	1.785926e+002
343000000	-2.130422e+001	-1.688702e+002
344000000	-1.942540e+001	-1.622874e+002
345000000	-1.757373e+001	-1.655546e+002
346000000	-1.608604e+001	-1.736825e+002
347000000	-1.515938e+001	1.756965e+002
348000000	-1.485300e+001	1.656450e+002
349000000	-1.464869e+001	1.589991e+002
350000000	-1.411393e+001	1.525324e+002
351000000	-1.355514e+001	1.441272e+002
352000000	-1.325007e+001	1.344389e+002
353000000	-1.322417e+001	1.259373e+002
354000000	-1.311540e+001	1.188047e+002
355000000	-1.294301e+001	1.107867e+002
356000000	-1.289456e+001	1.028273e+002
357000000	-1.292205e+001	9.516878e+001
358000000	-1.291206e+001	8.817793e+001
359000000	-1.285591e+001	8.104351e+001
360000000	-1.271076e+001	7.405152e+001
361000000	-1.246998e+001	6.504520e+001
362000000	-1.257391e+001	5.469399e+001
363000000	-1.293177e+001	4.494706e+001
364000000	-1.345715e+001	3.725086e+001
365000000	-1.382482e+001	3.103018e+001
366000000	-1.405561e+001	2.448442e+001
367000000	-1.419858e+001	1.752238e+001
368000000	-1.440184e+001	8.720708e+000
369000000	-1.503292e+001	-2.064172e+000
370000000	-1.540126e+001	-7.636123e+000
371000000	-1.617056e+001	-1.940068e+001
372000000	-1.676640e+001	-2.566332e+001
373000000	-1.798649e+001	-3.148934e+001
374000000	-1.933443e+001	-3.124818e+001
375000000	-1.944164e+001	-2.864674e+001
376000000	-1.887016e+001	-2.995544e+001
377000000	-1.833442e+001	-3.561821e+001
378000000	-1.807231e+001	-4.277505e+001
379000000	-1.798959e+001	-4.969075e+001
380000000	-1.801183e+001	-5.534064e+001
381000000	-1.753380e+001	-6.153617e+001
382000000	-1.709836e+001	-7.148223e+001
383000000	-1.844884e+001	-7.718680e+001
384000000	-1.943445e+001	-8.379903e+001
385000000	-1.982367e+001	-8.493270e+001
386000000	-1.936749e+001	-8.744735e+001
387000000	-1.879616e+001	-9.412137e+001
388000000	-1.855988e+001	-1.001168e+002
389000000	-1.806164e+001	-1.059164e+002
390000000	-1.757505e+001	-1.188536e+002
391000000	-1.732644e+001	-1.355890e+002
392000000	-1.722270e+001	-1.420681e+002
393000000	-1.674510e+001	-1.485673e+002
394000000	-1.634579e+001	-1.568210e+002
395000000	-1.600187e+001	-1.632233e+002
396000000	-1.602356e+001	-1.711185e+002
397000000	-1.571023e+001	-1.731054e+002
398000000	-1.505129e+001	-1.771781e+002
399000000	-1.435610e+001	1.763243e+002
400000000	-1.407073e+001	1.673402e+002
401000000	-1.380905e+001	1.587867e+002
402000000	-1.338761e+001	1.489111e+002
403000000	-1.317231e+001	1.389005e+002
404000000	-1.323245e+001	1.295096e+002
405000000	-1.333381e+001	1.207725e+002
406000000	-1.365150e+001	1.125339e+002
407000000	-1.412883e+001	1.069513e+002
408000000	-1.424459e+001	1.032355e+002
409000000	-1.412407e+001	9.782119e+001
410000000	-1.427916e+001	9.197158e+001
411000000	-1.446799e+001	8.962250e+001
412000000	-1.397340e+001	8.843731e+001
413000000	-1.304884e+001	8.328139e+001
414000000	-1.224504e+001	7.542089e+001
415000000	-1.164398e+001	6.542761e+001
416000000	-1.135748e+001	5.473377e+001
417000000	-1.121619e+001	4.486355e+001
418000000	-1.112104e+001	3.505826e+001
419000000	-1.097113e+001	2.523847e+001
420000000	-1.079417e+001	1.399117e+001
421000000	-1.078364e+001	1.416083e+000
422000000	-1.104131e+001	-1.172585e+001
423000000	-1.146631e+001	-2.557858e+001
424000000	-1.220184e+001	-3.957503e+001
425000000	-1.331495e+001	-5.243077e+001
426000000	-1.475144e+001	-6.395315e+001
427000000	-1.637679e+001	-7.278973e+001
428000000	-1.780141e+001	-7.863905e+001
429000000	-1.893181e+001	-8.455876e+001
430000000	-2.037082e+001	-9.121222e+001
431000000	-2.216536e+001	-9.457513e+001
432000000	-2.362854e+001	-9.019602e+001
433000000	-2.458761e+001	-7.959691e+001
434000000	-2.325339e+001	-9.682331e+001
435000000	-2.178142e+001	-6.831933e+001
436000000	-1.944508e+001	-6.713776e+001
437000000	-1.793674e+001	-7.831591e+001
438000000	-1.681228e+001	-8.588610e+001
439000000	-1.578679e+001	-9.522723e+001
440000000	-1.493160e+001	-1.063407e+002
441000000	-1.449171e+001	-1.183814e+002
442000000	-1.416543e+001	-1.286569e+002
443000000	-1.404710e+001	-1.382049e+002
444000000	-1.413166e+001	-1.470662e+002
445000000	-1.413796e+001	-1.536555e+002
446000000	-1.390660e+001	-1.604030e+002
447000000	-1.339396e+001	-1.685463e+002
448000000	-1.233167e+001	-1.766247e+002
449000000	-1.201163e+001	1.744466e+002
450000000	-1.181444e+001	1.655295e+002
451000000	-1.163695e+001	1.571690e+002
452000000	-1.161788e+001	1.491882e+002
453000000	-1.167579e+001	1.415414e+002
454000000	-1.151823e+001	1.339013e+002
455000000	-1.129370e+001	1.250791e+002
456000000	-1.129824e+001	1.153133e+002
457000000	-1.147960e+001	1.058664e+002
458000000	-1.182225e+001	9.727473e+001
459000000	-1.227721e+001	8.958219e+001
460000000	-1.272546e+001	8.332034e+001
461000000	-1.290534e+001	7.702273e+001
462000000	-1.304263e+001	6.980921e+001
463000000	-1.329278e+001	6.209501e+001
464000000	-1.355241e+001	5.394475e+001
465000000	-1.394158e+001	4.464711e+001
466000000	-1.457195e+001	3.512367e+001
467000000	-1.539709e+001	2.486906e+001
468000000	-1.675494e+001	1.461752e+001
469000000	-1.869909e+001	7.465780e+000
470000000	-2.082538e+001	6.903200e+000
471000000	-2.249252e+001	1.018990e+001
472000000	-2.343920e+001	1.525274e+001
473000000	-2.397232e+001	2.630807e+001
474000000	-2.254358e+001	3.362259e+001
475000000	-2.055816e+001	3.103901e+001
476000000	-1.929057e+001	2.378746e+001
477000000	-1.868238e+001	1.558549e+001
478000000	-1.808360e+001	7.759948e+000
479000000	-1.756711e+001	-1.216340e+000
480000000	-1.729102e+001	-1.174082e+001
481000000	-1.720334e+001	-2.146292e+001
482000000	-1.728071e+001	-3.004395e+001
483000000	-1.727753e+001	-3.732977e+001
484000000	-1.702118e+001	-4.509567e+001
485000000	-1.670692e+001	-5.450462e+001
486000000	-1.670675e+001	-6.490933e+001
487000000	-1.698580e+001	-7.211610e+001
488000000	-1.747728e+001	-7.886390e+001
489000000	-1.779650e+001	-8.187195e+001
490000000	-1.722726e+001	-8.179186e+001
491000000	-1.584627e+001	-8.609078e+001
492000000	-1.461589e+001	-9.511247e+001
493000000	-1.363099e+001	-1.046502e+002
494000000	-1.275151e+001	-1.155565e+002
495000000	-1.203634e+001	-1.271318e+002
496000000	-1.159147e+001	-1.393336e+002
497000000	-1.135174e+001	-1.509824e+002
498000000	-1.123468e+001	-1.620710e+002
499000000	-1.125796e+001	-1.724372e+002
500000000	-1.139102e+001	1.781292e+002
501000000	-1.156563e+001	1.689131e+002
502000000	-1.173272e+001	1.604720e+002
503000000	-1.193358e+001	1.530737e+002
504000000	-1.210056e+001	1.468742e+002
505000000	-1.210064e+001	1.408264e+002
506000000	-1.214598e+001	1.339760e+002
507000000	-1.232280e+001	1.269470e+002
508000000	-1.266476e+001	1.205433e+002
509000000	-1.290982e+001	1.165062e+002
