!Agilent Technologies,E5071C,MY46106131,A.11.36
!Date: Thu Jul 10 17:18:37 2025
!Data & Calibration Information:
!Freq	S11:SOLT2(ON)	S21:SOLT2(ON)	S12:SOLT2(ON)	S22:SOLT2(ON)
!PortZ  Port1:50+j0    Port2:50+j0
!Above PortZ is port z conversion or system Z0 setting when saving the data.
!When reading, reference impedance value at option line is always used.
# Hz S dB R 50
10000000	-3.488419e-001	-1.066209e+002	4.863635e+000	-1.601660e+002	-3.394079e+001	-1.553560e+002	-1.965414e+000	9.331752e+001
11000000	-3.467205e-001	-1.176270e+002	9.154908e+000	1.645872e+002	-4.079638e+001	1.816025e+001	-1.174175e+000	3.291953e+001
12000000	-3.581831e-001	-1.288449e+002	1.219294e+001	1.280632e+002	-3.920206e+001	6.916504e+001	-2.163061e+000	-2.002045e+001
13000000	-2.453536e-001	-1.399459e+002	1.492400e+001	9.162179e+001	-3.458508e+001	1.564538e+002	-2.609888e+000	-8.345724e+001
14000000	-6.374015e-001	-1.504811e+002	1.736667e+001	5.508760e+001	-3.299979e+001	7.311853e+001	-4.286270e+000	-1.420187e+002
15000000	-7.983586e-001	-1.587160e+002	1.940351e+001	1.955601e+001	-4.001624e+001	2.156067e+001	-4.690175e+000	1.622658e+002
16000000	-3.435708e-001	-1.713895e+002	2.156887e+001	-1.687795e+001	-3.969067e+001	-1.475930e+002	-4.061491e+000	1.108081e+002
17000000	-5.185197e-001	1.796097e+002	2.328103e+001	-5.125583e+001	-3.954164e+001	-4.401268e+001	-4.878443e+000	5.638619e+001
18000000	-7.636442e-001	1.695122e+002	2.492049e+001	-8.644256e+001	-4.209811e+001	-1.526418e+002	-5.667957e+000	5.252457e+000
19000000	-6.349648e-001	1.590239e+002	2.651110e+001	-1.218930e+002	-4.063283e+001	-5.904928e+001	-7.273417e+000	-4.882595e+001
20000000	-7.414061e-001	1.496029e+002	2.791775e+001	-1.571753e+002	-4.250887e+001	-1.438370e+002	-5.705891e+000	-9.031637e+001
21000000	-9.287118e-001	1.390953e+002	2.916321e+001	1.677728e+002	-3.312534e+001	1.748479e+002	-7.503847e+000	-1.446023e+002
22000000	-9.611534e-001	1.292692e+002	3.040368e+001	1.336160e+002	-3.710572e+001	-1.652245e+002	-1.095632e+001	1.488113e+002
23000000	-1.168720e+000	1.192974e+002	3.133808e+001	9.963407e+001	-4.073842e+001	-1.001242e+002	-1.034810e+001	1.080463e+002
24000000	-5.636018e-001	1.101771e+002	3.239578e+001	6.484531e+001	-3.235033e+001	1.304344e+002	-9.154459e+000	5.097588e+001
25000000	-1.065032e+000	9.846095e+001	3.341195e+001	3.110379e+001	-3.796434e+001	1.355797e+001	-7.982600e+000	1.757836e+001
26000000	-8.655368e-001	9.102248e+001	3.418133e+001	-2.633190e+000	-4.207603e+001	-1.573475e+002	-9.855053e+000	-1.540577e+001
27000000	-8.897900e-001	8.203987e+001	3.499002e+001	-3.629269e+001	-3.956658e+001	-1.341197e+002	-1.295635e+001	-7.311330e+001
28000000	-8.983261e-001	7.203934e+001	3.577138e+001	-6.996647e+001	-4.236666e+001	-1.547187e+002	-1.248521e+001	-1.403770e+002
29000000	-1.286404e+000	6.136446e+001	3.632160e+001	-1.038479e+002	-3.749332e+001	1.170574e+002	-8.929352e+000	-1.609269e+002
30000000	-9.098190e-001	5.274685e+001	3.688157e+001	-1.357596e+002	-3.872145e+001	-1.269802e+002	-1.011104e+001	1.325313e+002
31000000	-1.166834e+000	4.311399e+001	3.749381e+001	-1.697425e+002	-4.216409e+001	1.382366e+002	-8.289889e+000	8.119870e+001
32000000	-1.195035e+000	3.555459e+001	3.799883e+001	1.581770e+002	-6.527801e+001	-4.448589e+000	-8.820689e+000	3.857507e+001
33000000	-1.358796e+000	2.780511e+001	3.856308e+001	1.258437e+002	-4.265304e+001	1.364514e+002	-9.512162e+000	-3.405090e+001
34000000	-1.029069e+000	2.059291e+001	3.913550e+001	9.300133e+001	-3.928194e+001	1.137905e+002	-7.808242e+000	-5.732830e+001
35000000	-8.566713e-001	7.875104e+000	3.961249e+001	6.066252e+001	-4.314779e+001	-1.413328e+001	-1.005844e+001	-1.065673e+002
36000000	-1.101764e+000	-2.523401e+000	3.986410e+001	2.921868e+001	-3.924982e+001	-3.226864e+001	-6.642437e+000	-1.448379e+002
37000000	-1.648070e+000	-8.308695e+000	4.022615e+001	-3.473547e+000	-4.049646e+001	-1.239513e+002	-9.607493e+000	1.369915e+002
38000000	-1.010223e+000	-1.631849e+001	4.057657e+001	-3.476791e+001	-3.993090e+001	1.636696e+002	-7.611542e+000	7.091028e+001
39000000	-1.326916e+000	-2.863587e+001	4.108363e+001	-6.577462e+001	-5.232171e+001	6.430038e+001	-5.343084e+000	4.204117e+001
40000000	-1.136558e+000	-3.299619e+001	4.139374e+001	-9.714125e+001	-4.589086e+001	-1.445378e+002	-6.012730e+000	-9.561931e+000
41000000	-9.108283e-001	-4.132848e+001	4.185648e+001	-1.293030e+002	-3.978976e+001	-1.045572e+002	-8.857072e+000	-4.780866e+001
42000000	-7.051809e-001	-5.277613e+001	4.229566e+001	-1.604875e+002	-4.383205e+001	-1.483707e+002	-6.086944e+000	-1.022658e+002
43000000	-8.882435e-001	-5.829413e+001	4.252477e+001	1.678714e+002	-3.819816e+001	-4.309143e+001	-8.721913e+000	-1.689373e+002
44000000	-1.083465e+000	-7.248102e+001	4.276372e+001	1.370566e+002	-4.372032e+001	-1.438691e+002	-1.066390e+001	1.515878e+002
45000000	-1.119488e+000	-7.263715e+001	4.311536e+001	1.062842e+002	-3.604482e+001	1.800552e+001	-6.362647e+000	7.432945e+001
46000000	-1.602825e+000	-8.731600e+001	4.349627e+001	7.512103e+001	-4.774717e+001	1.310585e+002	-5.666508e+000	4.708957e+001
47000000	-1.583891e+000	-9.570173e+001	4.380767e+001	4.394568e+001	-5.039610e+001	1.171442e+002	-6.190814e+000	-8.430267e+000
48000000	-4.463345e-001	-1.035494e+002	4.423251e+001	1.290111e+001	-3.831619e+001	3.767684e+001	-5.286924e+000	-4.984088e+001
49000000	-1.592400e+000	-1.100890e+002	4.432211e+001	-1.853626e+001	-4.058790e+001	1.480534e+002	-5.766714e+000	-9.947718e+001
50000000	-9.194661e-001	-1.250539e+002	4.469828e+001	-4.836802e+001	-4.167016e+001	4.753420e+001	-5.070169e+000	-1.506933e+002
51000000	-2.395686e+000	-1.309077e+002	4.500163e+001	-8.012140e+001	-3.811916e+001	-1.032432e+002	-8.240633e+000	1.253871e+002
52000000	-1.512709e+000	-1.412297e+002	4.530564e+001	-1.101629e+002	-5.780172e+001	1.061972e+002	-6.833553e+000	1.066275e+002
53000000	-1.721608e+000	-1.510599e+002	4.557955e+001	-1.407390e+002	-5.006306e+001	2.432156e+001	-5.023587e+000	4.806124e+001
54000000	-2.022918e+000	-1.571073e+002	4.588056e+001	-1.714033e+002	-4.460514e+001	-4.413859e+001	-8.622219e+000	-1.091080e-001
55000000	-9.895068e-001	-1.712258e+002	4.617919e+001	1.572078e+002	-3.898113e+001	1.418004e+002	-1.075395e+001	-6.693683e+001
56000000	-1.295654e+000	-1.758375e+002	4.627811e+001	1.267998e+002	-4.715533e+001	-1.594253e+002	-7.355252e+000	-1.100208e+002
57000000	-1.816880e+000	1.704828e+002	4.660776e+001	9.521961e+001	-4.252765e+001	1.271402e+002	-9.122856e+000	1.792316e+002
58000000	-1.929485e+000	1.682592e+002	4.681930e+001	6.561872e+001	-4.877869e+001	1.531639e+001	-9.821980e+000	1.626702e+002
59000000	-1.368846e+000	1.557212e+002	4.713771e+001	3.445106e+001	-4.726232e+001	-1.155202e+002	-6.736110e+000	9.264211e+001
60000000	-2.188407e+000	1.534392e+002	4.732390e+001	4.121398e+000	-4.204872e+001	6.714382e+001	-1.040789e+001	2.734883e+001
61000000	-1.803235e+000	1.354864e+002	4.747506e+001	-2.613009e+001	-4.160215e+001	-1.136919e+002	-5.244695e+000	-2.550838e+000
62000000	-2.287385e+000	1.414642e+002	4.779975e+001	-5.637700e+001	-3.853217e+001	1.068277e+002	-6.956555e+000	-7.067749e+001
63000000	-2.255694e+000	1.222742e+002	4.798124e+001	-8.749099e+001	-5.139263e+001	-1.171437e+002	-7.911513e+000	-9.353530e+001
64000000	-2.022837e+000	1.091694e+002	4.807446e+001	-1.177994e+002	-4.187291e+001	-4.067647e+001	-1.325636e+001	-1.734745e+002
65000000	-2.046539e+000	1.152661e+002	4.836421e+001	-1.477941e+002	-4.035711e+001	1.597108e+002	-7.707901e+000	1.648605e+002
66000000	-4.212100e+000	9.897704e+001	4.851997e+001	-1.786401e+002	-3.736786e+001	-9.240527e+001	-1.175581e+001	8.211861e+001
67000000	-6.948187e-001	8.699158e+001	4.881156e+001	1.507971e+002	-3.925189e+001	9.891077e+001	-6.976835e+000	4.296924e+001
68000000	-1.598359e+000	7.635159e+001	4.906527e+001	1.201478e+002	-4.401477e+001	7.043543e+001	-6.822086e+000	3.515344e+000
69000000	-9.215416e-001	6.011989e+001	4.916300e+001	9.013252e+001	-3.465522e+001	1.021997e+002	-4.693674e+000	-2.587571e+001
70000000	-1.182430e+000	7.875841e+001	4.950040e+001	5.908231e+001	-3.581536e+001	-9.866254e+001	-1.374840e+001	-1.561236e+002
71000000	-1.104564e+000	5.473996e+001	4.959103e+001	2.928981e+001	-4.220074e+001	-1.657816e+002	-1.123387e+001	-1.765457e+002
72000000	-7.337903e-001	3.766563e+001	4.978272e+001	-2.955566e-001	-3.589677e+001	-1.788369e+002	-2.030410e+001	1.014693e+002
73000000	-1.027846e+000	4.537452e+001	5.005784e+001	-3.185870e+001	-4.171646e+001	-6.091703e+001	-5.789706e+000	7.012105e+001
74000000	-2.158669e+000	3.395880e+001	5.020477e+001	-6.148043e+001	-5.794809e+001	-4.536821e+000	-9.882034e+000	3.786782e+001
75000000	-2.112164e+000	3.204466e+001	5.044140e+001	-9.170484e+001	-4.447846e+001	3.797037e+001	-8.870290e+000	9.898475e+000
76000000	-2.479389e+000	1.944349e+001	5.075720e+001	-1.221402e+002	-5.189149e+001	1.096638e+002	-1.218159e+001	-6.480996e+001
77000000	-3.652617e+000	1.301532e+001	5.102888e+001	-1.521610e+002	-4.194704e+001	1.662410e+002	-9.500599e+000	-1.202510e+002
78000000	-2.783489e+000	-9.541146e+000	5.121266e+001	1.773236e+002	-4.035806e+001	-8.957757e+001	-8.058038e+000	-1.436350e+002
79000000	-2.675846e+000	-8.659274e+000	5.124514e+001	1.468328e+002	-4.983581e+001	-9.911599e+001	-1.134206e+001	1.513155e+002
80000000	-1.702893e+000	-2.633165e+000	5.140420e+001	1.164278e+002	-4.009685e+001	1.614002e+002	-8.089085e+000	8.078650e+001
81000000	-1.131008e+000	-2.592555e+001	5.164746e+001	8.685525e+001	-4.386772e+001	7.357435e+001	-1.200502e+001	2.067374e+001
82000000	-2.726571e+000	-2.029008e+001	5.188496e+001	5.580740e+001	-4.165958e+001	-1.148057e+002	-1.031023e+001	2.886284e+001
83000000	-3.589191e-001	-3.884780e+001	5.205182e+001	2.601601e+001	-4.014491e+001	1.511070e+002	-6.438386e+000	-3.095259e+001
84000000	-4.843082e-001	-5.149465e+001	5.227843e+001	-4.218008e+000	-4.045936e+001	1.508542e+002	-9.295483e+000	-7.501671e+001
85000000	-1.579329e+000	-4.801250e+001	5.243386e+001	-3.505462e+001	-4.532969e+001	-9.503243e+001	-1.347263e+001	-1.191533e+002
86000000	-1.606078e+000	-6.162203e+001	5.260104e+001	-6.540209e+001	-5.070886e+001	-1.144941e+002	-1.511109e+001	-1.402908e+002
87000000	-2.723294e+000	-7.125341e+001	5.278601e+001	-9.616201e+001	-5.194326e+001	7.920539e+001	-1.292814e+001	1.244099e+002
88000000	-2.167947e-001	-7.127177e+001	5.291374e+001	-1.258141e+002	-3.896567e+001	-5.592311e+001	-1.566864e+001	-1.410188e+001
89000000	-2.601574e+000	-8.367445e+001	5.295598e+001	-1.566296e+002	-5.174892e+001	8.126342e+001	-9.985387e+000	3.288277e+001
90000000	-1.236629e+000	-9.303409e+001	5.327653e+001	1.722540e+002	-4.699822e+001	-2.117522e+001	-1.679049e+001	-1.065567e+002
91000000	-3.356871e+000	-1.296869e+002	5.342921e+001	1.415347e+002	-3.584319e+001	-1.311758e+002	-1.069052e+001	1.791404e+002
92000000	1.161048e-001	-1.167098e+002	5.361974e+001	1.116985e+002	-3.856532e+001	-1.034634e+001	-9.700920e+000	-1.162190e+002
93000000	5.927183e-001	-1.321371e+002	5.368933e+001	8.111935e+001	-3.522339e+001	-3.968960e+000	-6.940020e+000	-1.625954e+002
94000000	-1.957469e+000	-1.165638e+002	5.393591e+001	5.160785e+001	-4.399360e+001	1.491363e+002	-1.588445e+001	-1.805618e+001
95000000	-4.741566e+000	-1.269390e+002	5.390187e+001	2.094295e+001	-4.066853e+001	-1.152705e+002	-1.121138e+001	3.304947e+001
96000000	-3.070906e+000	-1.409764e+002	5.408043e+001	-9.405514e+000	-5.152176e+001	-7.980727e+001	-1.858617e+001	6.071214e+001
97000000	-3.325733e+000	-1.413873e+002	5.415397e+001	-4.010794e+001	-4.449373e+001	-9.521877e+001	-1.317234e+001	-9.331223e+000
98000000	-2.634989e+000	-1.631319e+002	5.428252e+001	-7.011387e+001	-5.164923e+001	5.970403e+001	-2.711475e+001	-1.675222e+001
99000000	-3.113239e+000	-1.577727e+002	5.444019e+001	-9.971260e+001	-4.592156e+001	-4.661902e+001	-1.000016e+001	-2.521398e+001
100000000	-1.768360e+000	-1.724184e+002	5.463779e+001	-1.306493e+002	-5.358357e+001	-1.405315e+002	-1.318039e+001	-1.731459e+002
101000000	-3.046332e+000	1.719420e+002	5.472364e+001	-1.617384e+002	-4.865299e+001	1.091946e+002	-2.336707e+001	1.489359e+002
102000000	-6.587253e-001	1.701462e+002	5.485544e+001	1.690041e+002	-4.305174e+001	-1.025017e+002	-2.353192e+001	1.644843e+002
103000000	-1.909501e+000	1.583185e+002	5.495638e+001	1.386923e+002	-5.112351e+001	-1.335478e+002	-1.674137e+001	7.605963e+001
104000000	-7.435821e+000	1.738258e+002	5.515590e+001	1.090420e+002	-3.708110e+001	1.090163e+002	-6.259162e+000	-3.775927e+001
105000000	-2.497800e+000	1.612129e+002	5.530163e+001	7.757831e+001	-4.274521e+001	7.311097e+001	-1.140230e+001	-6.710915e+001
106000000	-1.403422e+000	1.604701e+002	5.543417e+001	4.694403e+001	-3.841850e+001	8.319053e+001	-8.598461e+000	-1.026419e+002
107000000	-2.892138e+000	1.295830e+002	5.545462e+001	1.695909e+001	-5.960422e+001	-1.338409e+002	-1.154288e+001	-7.720796e+001
108000000	-4.184786e+000	1.032106e+002	5.547021e+001	-1.226678e+001	-4.036146e+001	-7.751684e+001	-1.814803e+001	-5.362995e-001
109000000	-1.672276e+000	1.116585e+002	5.551064e+001	-4.272253e+001	-4.896552e+001	4.539856e+001	-1.472680e+001	1.225558e+002
110000000	-6.215669e-001	9.719771e+001	5.561282e+001	-7.285930e+001	-4.078708e+001	5.763015e+001	-1.054803e+001	8.576534e+001
111000000	-5.776569e+000	1.101184e+002	5.594978e+001	-1.034055e+002	-4.093904e+001	-7.787629e+001	-1.822542e+001	-6.833968e+001
112000000	-3.454600e+000	8.859991e+001	5.598503e+001	-1.335074e+002	-5.190046e+001	-2.905231e+000	-1.209164e+001	-4.832409e+000
113000000	5.367468e-001	8.171404e+001	5.592599e+001	-1.636622e+002	-3.878397e+001	1.659965e+002	-1.103018e+001	6.247838e+001
114000000	-2.493634e+000	8.027358e+001	5.622752e+001	1.653881e+002	-5.485109e+001	-8.596021e+001	-1.445267e+001	-1.022177e+002
115000000	-1.636591e+000	6.453193e+001	5.632897e+001	1.355216e+002	-4.919391e+001	-1.702045e+002	-1.676486e+001	-9.219227e+001
116000000	9.009163e-001	5.190310e+001	5.633679e+001	1.065320e+002	-3.735014e+001	-1.355871e+002	-1.042289e+001	3.480729e+001
117000000	-2.165353e+000	7.088128e+001	5.643058e+001	7.503202e+001	-4.199977e+001	1.053672e+000	-1.117959e+001	1.695414e+002
118000000	-2.335840e+000	5.438897e+001	5.652056e+001	4.505734e+001	-4.757038e+001	1.824639e+001	-1.129170e+001	1.162305e+002
119000000	-6.628201e-001	3.765500e+001	5.675636e+001	1.609429e+001	-4.446198e+001	-3.671119e+001	-4.551449e+000	2.696767e+001
120000000	-2.978675e+000	4.102468e+000	5.691481e+001	-1.536749e+001	-3.960118e+001	-1.189215e+002	-7.991373e+000	-4.135034e+001
121000000	-5.479757e-001	3.355502e+001	5.685402e+001	-4.556147e+001	-4.118286e+001	5.937583e+001	-1.583722e+001	2.554506e+001
122000000	-1.274699e+000	1.840522e+001	5.705274e+001	-7.565078e+001	-4.774088e+001	6.081652e+001	-1.617010e+001	-1.030868e+002
123000000	-1.453203e+000	1.832089e+001	5.712224e+001	-1.056175e+002	-4.401685e+001	1.226568e+002	-2.919776e+001	7.371490e+001
124000000	-4.782624e+000	-3.329909e+000	5.723365e+001	-1.370905e+002	-4.616148e+001	-8.332698e+001	-8.808349e+000	-1.773120e+002
125000000	-1.824121e+000	3.599873e+000	5.727784e+001	-1.656389e+002	-4.497484e+001	-1.744501e+002	-5.543887e+000	7.282269e+001
126000000	-9.790185e-001	-2.310351e+001	5.755581e+001	1.625451e+002	-4.484325e+001	1.098514e+002	-8.549725e+000	-3.440107e+001
127000000	-6.978236e+000	-6.448602e+000	5.750040e+001	1.327872e+002	-4.025196e+001	-4.023001e+001	-1.329572e+001	4.354565e+001
128000000	-5.949823e+000	-3.343569e+001	5.748725e+001	1.022714e+002	-4.365270e+001	1.433948e+001	-1.638120e+001	-1.200696e+002
129000000	-1.329536e+000	-3.443474e+001	5.768308e+001	7.241073e+001	-4.691152e+001	-1.175152e+002	-1.080943e+001	-8.685177e+001
130000000	-3.034926e+000	-3.900967e+001	5.771532e+001	4.210645e+001	-5.083790e+001	-2.369087e+001	-1.563903e+001	-1.003906e+002
131000000	-5.367987e+000	-4.054468e+001	5.761145e+001	1.242109e+001	-4.355965e+001	4.645413e+001	-9.036217e+000	1.315828e+002
132000000	-1.426062e+000	-6.664932e+001	5.799019e+001	-1.892505e+001	-4.806259e+001	-8.645608e+001	-2.283223e+001	8.416184e+001
133000000	-1.266547e+000	-5.168126e+001	5.807303e+001	-4.829952e+001	-4.123222e+001	2.638349e+001	-5.164165e+000	2.676917e+001
134000000	-9.364380e-001	-6.089565e+001	5.821751e+001	-7.913896e+001	-4.079581e+001	4.201666e+001	-4.652039e+000	-3.589543e+000
135000000	-2.264155e+000	-9.393012e+001	5.811822e+001	-1.097142e+002	-4.924958e+001	-5.623530e+001	-8.914740e+000	-7.229051e+001
136000000	-1.523288e+000	-8.540004e+001	5.827027e+001	-1.400204e+002	-4.587585e+001	7.626660e+001	-8.866318e+000	-8.485409e+001
137000000	-6.540051e-001	-1.123066e+002	5.819165e+001	-1.703243e+002	-4.271490e+001	1.811269e+001	-7.160177e+000	-1.412812e+002
138000000	-5.645317e+000	-1.120470e+002	5.830872e+001	1.606229e+002	-4.724088e+001	-9.562392e+001	-7.601445e+000	1.424562e+002
139000000	-2.542613e+000	-1.282751e+002	5.835812e+001	1.295651e+002	-4.875813e+001	3.939037e+001	-1.296363e+001	1.134777e+002
140000000	7.966145e-002	-1.495658e+002	5.825835e+001	9.896525e+001	-3.834270e+001	7.186511e+001	-6.609885e+000	1.460231e+002
141000000	-6.021601e+000	-1.206633e+002	5.850017e+001	6.894361e+001	-4.473732e+001	-5.754995e+001	-7.582425e+000	2.158735e+001
142000000	-5.074194e+000	-1.277471e+002	5.853593e+001	3.819526e+001	-4.629956e+001	-4.996994e+001	-7.473621e+000	-3.510961e+001
143000000	-3.245651e+000	-1.531121e+002	5.852719e+001	8.084122e+000	-5.908342e+001	1.566365e+002	-7.649576e+000	-7.962444e+001
144000000	-1.632656e+000	-1.383333e+002	5.857573e+001	-2.289922e+001	-4.214562e+001	-6.356615e+001	-6.006098e+000	-1.132119e+002
145000000	-8.047501e+000	1.641258e+002	5.865628e+001	-5.112445e+001	-4.082424e+001	1.078522e+002	-7.229933e+000	1.023131e+002
146000000	-6.861569e+000	-1.789250e+002	5.876423e+001	-8.179479e+001	-4.591518e+001	1.113365e+002	-9.918903e+000	7.063782e+001
147000000	-3.289522e+000	1.716617e+002	5.870667e+001	-1.121983e+002	-5.321833e+001	-1.250956e+002	-9.898333e+000	6.070648e+001
148000000	-2.640739e+000	-1.714827e+002	5.852295e+001	-1.438551e+002	-4.427578e+001	4.317275e+001	-1.001899e+001	-6.007531e+001
149000000	-1.360714e-001	1.465817e+002	5.871184e+001	-1.715192e+002	-3.994131e+001	-4.888185e+001	-1.761369e+001	5.623155e+001
150000000	-3.002155e+000	1.454398e+002	5.863491e+001	1.571668e+002	-4.935112e+001	-3.999375e+001	-8.568275e+000	-1.067240e+002
151000000	-3.818495e+000	1.612750e+002	5.868207e+001	1.273906e+002	-4.876195e+001	1.338352e+002	-7.836049e+000	-1.301958e+002
152000000	-4.990570e+000	1.492272e+002	5.876720e+001	9.714238e+001	-5.069021e+001	-1.687281e+002	-1.260565e+001	1.722382e+002
153000000	-2.623769e+000	1.269836e+002	5.881486e+001	6.784922e+001	-5.021214e+001	6.593992e+001	-6.977448e+000	1.285316e+002
154000000	-8.376040e+000	9.843463e+001	5.889177e+001	3.686387e+001	-4.242234e+001	-2.946881e+001	-7.732912e+000	2.468477e+001
155000000	-3.670118e+000	1.222356e+002	5.887362e+001	7.582152e+000	-5.470497e+001	-1.571785e+002	-1.543844e+001	1.433295e+001
156000000	-3.684412e+000	8.648679e+001	5.892676e+001	-2.211739e+001	-4.435406e+001	7.636658e+001	-6.668898e+000	4.444309e+000
157000000	-3.234938e+000	1.077676e+002	5.879829e+001	-5.169482e+001	-5.085073e+001	-1.247210e+002	-1.249996e+001	-1.323767e+002
158000000	-1.126317e+001	8.826648e+001	5.877220e+001	-8.273644e+001	-4.196712e+001	4.270435e+001	-3.735299e+000	-1.129487e+002
159000000	-6.567013e+000	1.048829e+002	5.882087e+001	-1.122206e+002	-4.583909e+001	1.434635e+001	-7.860705e+000	-1.553428e+002
160000000	-1.103658e+001	8.960754e+001	5.888254e+001	-1.418503e+002	-4.226727e+001	7.794852e+001	-1.214098e+001	1.681137e+002
161000000	-4.300933e+000	8.848732e+001	5.898406e+001	-1.713370e+002	-4.676545e+001	2.679798e+001	-9.935026e+000	1.095782e+002
162000000	2.214115e-001	4.269599e+001	5.922018e+001	1.579113e+002	-3.853361e+001	-8.930049e+001	-3.244316e+000	1.498783e+001
163000000	-5.688311e+000	5.691145e+001	5.914632e+001	1.284853e+002	-5.425235e+001	1.525731e+002	-8.883784e+000	-3.810866e+001
164000000	-2.238590e+000	3.665918e+001	5.917222e+001	9.846140e+001	-4.629529e+001	-4.007506e+001	-6.241206e+000	-6.455616e+001
